***BUSMASTER Ver 2.4.0***
***PROTOCOL CAN***
***NOTE: PLEASE DO NOT EDIT THIS DOCUMENT***
***[START LOGGING SESSION]***
***START DATE AND TIME 8:8:2014 11:49:7:965***
***HEX***
***SYSTEM MODE***
***START CHANNEL BAUD RATE***
***CHANNEL 1 - Kvaser - Kvaser Leaf Light HS #0 (Channel 0), Serial Number- 0, Firmware- 0x00000037 0x00020000 - 500000 bps***
***END CHANNEL BAUD RATE***
***START DATABASE FILES (DBF/DBC)***
***END OF DATABASE FILES (DBF/DBC)***
***<Time><Tx/Rx><Channel><CAN ID><Type><DLC><DataBytes>***
11:49:12:9420 Rx 1 0x023 s 1 40 
11:49:12:9440 Rx 1 0x460 s 8 03 E0 00 00 C0 00 00 00 
11:49:12:9530 Rx 1 0x023 s 1 40 
11:49:12:9680 Rx 1 0x408 s 8 0F 02 00 30 00 00 7F 00 
11:49:12:9680 Rx 1 0x40B s 8 00 00 00 00 00 10 60 00 
11:49:12:9690 Rx 1 0x045 s 8 40 00 00 00 00 00 00 00 
11:49:12:9790 Rx 1 0x210 s 7 FF FF 30 68 90 00 01 
11:49:12:9790 Rx 1 0x4B0 s 8 27 10 27 10 27 10 27 10 
11:49:12:9930 Rx 1 0x210 s 7 FF FF 30 68 90 00 02 
11:49:12:9930 Rx 1 0x4B0 s 8 27 10 27 10 27 10 27 10 
11:49:13:0070 Rx 1 0x210 s 7 FF FF 30 68 90 00 03 
11:49:13:0070 Rx 1 0x4B0 s 8 27 10 27 10 27 10 27 10 
11:49:13:0210 Rx 1 0x210 s 7 FF FF 30 68 90 00 04 
11:49:13:0210 Rx 1 0x4B0 s 8 27 10 27 10 27 10 27 10 
11:49:13:0310 Rx 1 0x115 s 8 6E FF FF FF 04 14 FF 00 
11:49:13:0320 Rx 1 0x495 s 2 7F 00 
11:49:13:0350 Rx 1 0x210 s 7 FF FF 30 68 90 00 05 
11:49:13:0350 Rx 1 0x4B0 s 8 27 10 27 10 27 10 27 10 
11:49:13:0430 Rx 1 0x460 s 8 03 E0 00 00 C0 00 00 00 
11:49:13:0490 Rx 1 0x210 s 7 FF FF 30 68 90 00 06 
11:49:13:0490 Rx 1 0x4B0 s 8 27 10 27 10 27 10 27 10 
11:49:13:0630 Rx 1 0x210 s 7 FF FF 30 68 90 00 07 
11:49:13:0630 Rx 1 0x4B0 s 8 27 10 27 10 27 10 27 10 
11:49:13:0670 Rx 1 0x045 s 8 40 00 00 00 00 00 00 00 
11:49:13:0770 Rx 1 0x210 s 7 FF FF 30 68 90 00 08 
11:49:13:0770 Rx 1 0x4B0 s 8 27 10 27 10 27 10 27 10 
11:49:13:0910 Rx 1 0x210 s 7 FF FF 30 68 90 00 09 
11:49:13:0910 Rx 1 0x4B0 s 8 27 10 27 10 27 10 27 10 
11:49:13:1050 Rx 1 0x210 s 7 FF FF 30 68 90 00 0A 
11:49:13:1050 Rx 1 0x4B0 s 8 27 10 27 10 27 10 27 10 
11:49:13:1190 Rx 1 0x210 s 7 FF FF 30 68 90 00 0B 
11:49:13:1190 Rx 1 0x4B0 s 8 27 10 27 10 27 10 27 10 
11:49:13:1320 Rx 1 0x495 s 2 7F 00 
11:49:13:1330 Rx 1 0x210 s 7 FF FF 30 68 90 00 0C 
11:49:13:1330 Rx 1 0x4B0 s 8 27 10 27 10 27 10 27 10 
11:49:13:1410 Rx 1 0x345 s 8 00 00 00 00 00 00 00 00 
11:49:13:1410 Rx 1 0x344 s 4 FF FF FF FF 
11:49:13:1430 Rx 1 0x023 s 1 40 
11:49:13:1430 Rx 1 0x460 s 8 03 E0 00 00 C0 00 00 00 
11:49:13:1470 Rx 1 0x210 s 7 FF FF 30 68 90 00 0D 
11:49:13:1470 Rx 1 0x4B0 s 8 27 10 27 10 27 10 27 10 
11:49:13:1610 Rx 1 0x210 s 7 FF FF 30 68 90 00 0E 
11:49:13:1610 Rx 1 0x4B0 s 8 27 10 27 10 27 10 27 10 
11:49:13:1670 Rx 1 0x045 s 8 40 00 00 00 00 00 00 00 
11:49:13:1750 Rx 1 0x210 s 7 FF FF 30 68 90 00 0F 
11:49:13:1750 Rx 1 0x4B0 s 8 27 10 27 10 27 10 27 10 
11:49:13:1890 Rx 1 0x210 s 7 FF FF 30 68 90 00 10 
11:49:13:1890 Rx 1 0x4B0 s 8 27 10 27 10 27 10 27 10 
11:49:13:1970 Rx 1 0x409 s 8 00 00 00 00 00 E0 00 00 
11:49:13:2030 Rx 1 0x210 s 7 FF FF 30 68 90 00 11 
11:49:13:2030 Rx 1 0x4B0 s 8 27 10 27 10 27 10 27 10 
11:49:13:2170 Rx 1 0x210 s 7 FF FF 30 68 90 00 12 
11:49:13:2170 Rx 1 0x4B0 s 8 27 10 27 10 27 10 27 10 
11:49:13:2310 Rx 1 0x210 s 7 FF FF 30 68 90 00 13 
11:49:13:2310 Rx 1 0x4B0 s 8 27 10 27 10 27 10 27 10 
11:49:13:2320 Rx 1 0x495 s 2 7F 00 
11:49:13:2410 Rx 1 0x250 s 8 20 00 40 00 00 00 00 00 
11:49:13:2410 Rx 1 0x440 s 8 12 70 09 05 40 00 00 00 
11:49:13:2420 Rx 1 0x441 s 8 00 00 00 00 00 00 00 00 
11:49:13:2420 Rx 1 0x442 s 8 00 00 00 00 00 00 00 00 
11:49:13:2430 Rx 1 0x443 s 8 00 00 00 00 00 00 00 00 
11:49:13:2430 Rx 1 0x460 s 8 03 E0 00 00 C0 00 00 00 
11:49:13:2430 Rx 1 0x444 s 8 31 20 00 00 00 00 00 00 
11:49:13:2440 Rx 1 0x3A0 s 8 00 00 00 00 00 00 00 00 
11:49:13:2440 Rx 1 0x3A1 s 8 70 80 19 30 FF 00 EB A5 
11:49:13:2450 Rx 1 0x210 s 7 FF FF 30 68 90 00 14 
11:49:13:2450 Rx 1 0x4B0 s 8 27 10 27 10 27 10 27 10 
11:49:13:2590 Rx 1 0x210 s 7 FF FF 30 68 90 00 15 
11:49:13:2590 Rx 1 0x4B0 s 8 27 10 27 10 27 10 27 10 
11:49:13:2670 Rx 1 0x045 s 8 40 00 00 00 00 00 00 00 
11:49:13:2730 Rx 1 0x210 s 7 FF FF 30 68 90 00 16 
11:49:13:2730 Rx 1 0x4B0 s 8 27 10 27 10 27 10 27 10 
11:49:13:2870 Rx 1 0x210 s 7 FF FF 30 68 90 00 17 
11:49:13:2870 Rx 1 0x4B0 s 8 27 10 27 10 27 10 27 10 
11:49:13:3010 Rx 1 0x210 s 7 FF FF 30 68 90 00 18 
11:49:13:3010 Rx 1 0x4B0 s 8 27 10 27 10 27 10 27 10 
11:49:13:3060 Rx 1 0x300 s 8 02 04 27 00 00 3F 01 00 
11:49:13:3060 Rx 1 0x30E s 8 35 31 35 31 37 34 30 45 
11:49:13:3060 Rx 1 0x30F s 8 30 30 30 30 30 36 39 36 
11:49:13:3150 Rx 1 0x210 s 7 FF FF 30 68 90 00 19 
11:49:13:3150 Rx 1 0x4B0 s 8 27 10 27 10 27 10 27 10 
11:49:13:3290 Rx 1 0x210 s 7 FF FF 30 68 90 00 1A 
11:49:13:3290 Rx 1 0x4B0 s 8 27 10 27 10 27 10 27 10 
11:49:13:3310 Rx 1 0x300 s 8 02 04 27 00 00 3F 01 00 
11:49:13:3310 Rx 1 0x30E s 8 35 31 35 31 37 34 30 45 
11:49:13:3310 Rx 1 0x30F s 8 30 30 30 30 30 36 39 36 
11:49:13:3320 Rx 1 0x495 s 2 7F 00 
11:49:13:3380 Rx 1 0x250 s 8 28 00 40 00 00 00 00 00 
11:49:13:3410 Rx 1 0x345 s 8 00 00 00 00 00 00 00 00 
11:49:13:3410 Rx 1 0x344 s 4 FF FF FF FF 
11:49:13:3420 Rx 1 0x023 s 1 40 
11:49:13:3430 Rx 1 0x460 s 8 03 E0 00 00 C0 00 00 00 
11:49:13:3430 Rx 1 0x210 s 7 FF FF 30 68 90 00 1B 
11:49:13:3430 Rx 1 0x4B0 s 8 27 10 27 10 27 10 27 10 
11:49:13:3560 Rx 1 0x300 s 8 02 04 27 00 00 3F 01 00 
11:49:13:3560 Rx 1 0x30E s 8 35 31 35 31 37 34 30 45 
11:49:13:3560 Rx 1 0x30F s 8 30 30 30 30 30 36 39 36 
11:49:13:3570 Rx 1 0x210 s 7 FF FF 30 68 90 00 1C 
11:49:13:3570 Rx 1 0x4B0 s 8 27 10 27 10 27 10 27 10 
11:49:13:3670 Rx 1 0x045 s 8 40 00 00 00 00 00 00 00 
11:49:13:3710 Rx 1 0x210 s 7 FF FF 30 68 90 00 1D 
11:49:13:3710 Rx 1 0x4B0 s 8 27 10 27 10 27 10 27 10 
11:49:13:3820 Rx 1 0x300 s 8 02 04 27 00 00 3F 01 00 
11:49:13:3820 Rx 1 0x30E s 8 35 31 35 31 37 34 30 45 
11:49:13:3820 Rx 1 0x30F s 8 30 30 30 30 30 36 39 36 
11:49:13:3850 Rx 1 0x210 s 7 FF FF 30 68 90 00 1E 
11:49:13:3850 Rx 1 0x4B0 s 8 27 10 27 10 27 10 27 10 
11:49:13:3990 Rx 1 0x210 s 7 FF FF 30 68 90 00 1F 
11:49:13:3990 Rx 1 0x4B0 s 8 27 10 27 10 27 10 27 10 
11:49:13:4070 Rx 1 0x300 s 8 02 04 27 00 00 3F 01 00 
11:49:13:4070 Rx 1 0x30E s 8 35 31 35 31 37 34 30 45 
11:49:13:4070 Rx 1 0x30F s 8 30 30 30 30 30 36 39 36 
11:49:13:4130 Rx 1 0x210 s 7 FF FF 30 68 90 00 20 
11:49:13:4130 Rx 1 0x4B0 s 8 27 10 27 10 27 10 27 10 
11:49:13:4180 Rx 1 0x251 s 8 00 00 00 00 00 00 00 00 
11:49:13:4270 Rx 1 0x210 s 7 FF FF 30 68 90 00 21 
11:49:13:4270 Rx 1 0x4B0 s 8 27 10 27 10 27 10 27 10 
11:49:13:4280 Rx 1 0x265 s 8 00 00 00 00 00 00 00 00 
11:49:13:4320 Rx 1 0x300 s 8 02 04 27 00 00 3F 01 00 
11:49:13:4320 Rx 1 0x30E s 8 35 31 35 31 37 34 30 45 
11:49:13:4320 Rx 1 0x30F s 8 30 30 30 30 30 36 39 36 
11:49:13:4320 Rx 1 0x495 s 2 7F 00 
11:49:13:4370 Rx 1 0x310 s 3 02 00 00 
11:49:13:4380 Rx 1 0x250 s 8 28 00 40 00 00 00 00 00 
11:49:13:4380 Rx 1 0x440 s 8 12 70 09 05 40 00 00 00 
11:49:13:4380 Rx 1 0x441 s 8 00 00 00 00 00 00 00 00 
11:49:13:4390 Rx 1 0x442 s 8 00 00 00 00 00 00 00 00 
11:49:13:4390 Rx 1 0x443 s 8 00 00 00 00 00 00 00 00 
11:49:13:4390 Rx 1 0x444 s 8 31 20 00 00 00 00 00 00 
11:49:13:4410 Rx 1 0x210 s 7 FF FF 30 68 90 00 22 
11:49:13:4410 Rx 1 0x4B0 s 8 27 10 27 10 27 10 27 10 
11:49:13:4420 Rx 1 0x460 s 8 03 E0 00 00 C0 00 00 00 
11:49:13:4550 Rx 1 0x210 s 7 FF FF 30 68 90 00 23 
11:49:13:4550 Rx 1 0x4B0 s 8 27 10 27 10 27 10 27 10 
11:49:13:4570 Rx 1 0x300 s 8 02 04 27 00 00 3F 01 00 
11:49:13:4570 Rx 1 0x30E s 8 35 31 35 31 37 34 30 45 
11:49:13:4570 Rx 1 0x30F s 8 30 30 30 30 30 36 39 36 
11:49:13:4580 Rx 1 0x359 s 8 02 00 00 86 00 00 00 00 
11:49:13:4670 Rx 1 0x408 s 8 0F 02 81 30 00 1D 81 06 
11:49:13:4680 Rx 1 0x40B s 8 00 00 06 00 00 10 60 00 
11:49:13:4680 Rx 1 0x045 s 8 40 00 00 00 00 00 00 00 
11:49:13:4690 Rx 1 0x210 s 7 FF FF 30 68 90 00 24 
11:49:13:4690 Rx 1 0x4B0 s 8 27 10 27 10 27 10 27 10 
11:49:13:4820 Rx 1 0x300 s 8 02 04 27 00 00 3F 01 00 
11:49:13:4820 Rx 1 0x30E s 8 35 31 35 31 37 34 30 45 
11:49:13:4820 Rx 1 0x30F s 8 30 30 30 30 30 36 39 36 
11:49:13:4830 Rx 1 0x210 s 7 FF FF 30 68 90 00 25 
11:49:13:4830 Rx 1 0x4B0 s 8 27 10 27 10 27 10 27 10 
11:49:13:4970 Rx 1 0x210 s 7 FF FF 30 68 90 00 26 
11:49:13:4970 Rx 1 0x4B0 s 8 27 10 27 10 27 10 27 10 
11:49:13:5070 Rx 1 0x300 s 8 02 04 27 00 00 3F 01 00 
11:49:13:5070 Rx 1 0x30E s 8 35 31 35 31 37 34 30 45 
11:49:13:5070 Rx 1 0x30F s 8 30 30 30 30 30 36 39 36 
11:49:13:5110 Rx 1 0x210 s 7 FF FF 30 68 90 00 27 
11:49:13:5110 Rx 1 0x4B0 s 8 27 10 27 10 27 10 27 10 
11:49:13:5180 Rx 1 0x251 s 8 00 00 00 00 00 00 00 00 
11:49:13:5250 Rx 1 0x210 s 7 FF FF 30 68 90 00 28 
11:49:13:5250 Rx 1 0x4B0 s 8 27 10 27 10 27 10 27 10 
11:49:13:5280 Rx 1 0x264 s 8 00 C0 51 00 00 E1 20 00 
11:49:13:5320 Rx 1 0x300 s 8 02 04 27 00 00 3F 01 00 
11:49:13:5320 Rx 1 0x30E s 8 35 31 35 31 37 34 30 45 
11:49:13:5320 Rx 1 0x30F s 8 30 30 30 30 30 36 39 36 
11:49:13:5320 Rx 1 0x495 s 2 7F 00 
11:49:13:5380 Rx 1 0x265 s 8 00 00 00 00 00 00 00 00 
11:49:13:5380 Rx 1 0x250 s 8 28 00 40 00 00 00 00 00 
11:49:13:5390 Rx 1 0x210 s 7 FF FF 30 68 90 00 29 
11:49:13:5390 Rx 1 0x4B0 s 8 27 10 27 10 27 10 27 10 
11:49:13:5410 Rx 1 0x345 s 8 00 00 00 00 00 00 00 00 
11:49:13:5410 Rx 1 0x344 s 4 FF FF FF FF 
11:49:13:5420 Rx 1 0x023 s 1 40 
11:49:13:5420 Rx 1 0x460 s 8 03 E0 00 00 C0 00 00 00 
11:49:13:5470 Rx 1 0x311 s 2 00 00 
11:49:13:5530 Rx 1 0x210 s 7 FF FF 30 68 90 00 2A 
11:49:13:5530 Rx 1 0x4B0 s 8 27 10 27 10 27 10 27 10 
11:49:13:5670 Rx 1 0x045 s 8 40 00 00 00 00 00 00 00 
11:49:13:5670 Rx 1 0x210 s 7 FF FF 30 68 90 00 2B 
11:49:13:5670 Rx 1 0x4B0 s 8 27 10 27 10 27 10 27 10 
11:49:13:5810 Rx 1 0x210 s 7 FF FF 30 68 90 00 2C 
11:49:13:5810 Rx 1 0x4B0 s 8 27 10 27 10 27 10 27 10 
11:49:13:5950 Rx 1 0x210 s 7 FF FF 30 68 90 00 2D 
11:49:13:5950 Rx 1 0x4B0 s 8 27 10 27 10 27 10 27 10 
11:49:13:6070 Rx 1 0x301 s 8 00 00 00 02 00 00 00 FA 
11:49:13:6070 Rx 1 0x302 s 8 00 00 00 00 09 54 00 00 
11:49:13:6070 Rx 1 0x304 s 8 00 00 00 00 00 00 00 00 
11:49:13:6070 Rx 1 0x305 s 8 00 00 00 40 00 00 00 80 
11:49:13:6080 Rx 1 0x303 s 8 0F 59 00 00 00 00 00 00 
11:49:13:6090 Rx 1 0x210 s 7 FF FF 30 68 90 00 2E 
11:49:13:6090 Rx 1 0x4B0 s 8 27 10 27 10 27 10 27 10 
11:49:13:6180 Rx 1 0x251 s 8 00 00 00 00 00 00 00 00 
11:49:13:6230 Rx 1 0x210 s 7 FF FF 30 68 90 00 2F 
11:49:13:6230 Rx 1 0x4B0 s 8 27 10 27 10 27 10 27 10 
11:49:13:6280 Rx 1 0x265 s 8 00 00 00 00 00 00 00 00 
11:49:13:6320 Rx 1 0x495 s 2 7F 00 
11:49:13:6370 Rx 1 0x210 s 7 FF FF 30 68 90 00 30 
11:49:13:6370 Rx 1 0x4B0 s 8 27 10 27 10 27 10 27 10 
11:49:13:6380 Rx 1 0x310 s 3 02 00 00 
11:49:13:6380 Rx 1 0x250 s 8 28 00 40 00 00 00 00 00 
11:49:13:6380 Rx 1 0x440 s 8 12 70 09 05 40 00 00 00 
11:49:13:6390 Rx 1 0x441 s 8 00 00 00 00 00 00 00 00 
11:49:13:6390 Rx 1 0x442 s 8 00 00 00 00 00 00 00 00 
11:49:13:6400 Rx 1 0x443 s 8 00 00 00 00 00 00 00 00 
11:49:13:6400 Rx 1 0x444 s 8 31 20 00 00 00 00 00 00 
11:49:13:6420 Rx 1 0x460 s 8 03 E0 00 00 C0 00 00 00 
11:49:13:6510 Rx 1 0x210 s 7 FF FF 30 68 90 00 31 
11:49:13:6510 Rx 1 0x4B0 s 8 27 10 27 10 27 10 27 10 
11:49:13:6580 Rx 1 0x359 s 8 02 00 00 86 00 00 00 00 
11:49:13:6650 Rx 1 0x210 s 7 FF FF 30 68 90 00 32 
11:49:13:6660 Rx 1 0x4B0 s 8 27 10 27 10 27 10 27 10 
11:49:13:6670 Rx 1 0x045 s 8 40 00 00 00 00 00 00 00 
11:49:13:6790 Rx 1 0x210 s 7 FF FF 30 68 90 00 33 
11:49:13:6800 Rx 1 0x4B0 s 8 27 10 27 10 27 10 27 10 
11:49:13:6820 Rx 1 0x610 s 8 00 00 00 00 00 00 02 00 
11:49:13:6820 Rx 1 0x611 s 8 00 00 00 00 FA FA FA FA 
11:49:13:6930 Rx 1 0x210 s 7 FF FF 30 68 90 00 34 
11:49:13:6930 Rx 1 0x4B0 s 8 27 10 27 10 27 10 27 10 
11:49:13:6970 Rx 1 0x409 s 8 00 00 00 00 80 00 00 00 
11:49:13:7070 Rx 1 0x210 s 7 FF FF 30 68 90 00 35 
11:49:13:7070 Rx 1 0x4B0 s 8 27 10 27 10 27 10 27 10 
11:49:13:7180 Rx 1 0x251 s 8 04 00 00 00 00 00 00 00 
11:49:13:7210 Rx 1 0x210 s 7 FF FF 30 68 90 00 36 
11:49:13:7220 Rx 1 0x4B0 s 8 27 10 27 10 27 10 27 10 
11:49:13:7280 Rx 1 0x264 s 8 00 00 59 00 01 01 20 00 
11:49:13:7320 Rx 1 0x495 s 2 7F 00 
11:49:13:7350 Rx 1 0x210 s 7 FF FF 30 68 90 00 37 
11:49:13:7360 Rx 1 0x4B0 s 8 27 10 27 10 27 10 27 10 
11:49:13:7380 Rx 1 0x265 s 8 FC 07 00 00 00 00 00 00 
11:49:13:7380 Rx 1 0x250 s 8 28 00 40 00 00 00 00 00 
11:49:13:7390 Rx 1 0x3A0 s 8 00 00 03 E8 00 00 00 00 
11:49:13:7400 Rx 1 0x3A1 s 8 80 00 00 00 FF 00 EB A5 
11:49:13:7410 Rx 1 0x345 s 8 00 00 00 00 00 00 00 00 
11:49:13:7410 Rx 1 0x344 s 4 FF FF FF FF 
11:49:13:7410 Rx 1 0x023 s 1 40 
11:49:13:7420 Rx 1 0x460 s 8 03 E0 00 00 C0 00 00 00 
11:49:13:7480 Rx 1 0x311 s 2 00 00 
11:49:13:7490 Rx 1 0x210 s 7 FF FF 30 68 90 00 38 
11:49:13:7500 Rx 1 0x4B0 s 8 27 10 27 10 27 10 27 10 
11:49:13:7630 Rx 1 0x210 s 7 FF FF 30 68 90 00 39 
11:49:13:7640 Rx 1 0x4B0 s 8 27 10 27 10 27 10 27 10 
11:49:13:7670 Rx 1 0x045 s 8 40 00 00 00 00 00 00 00 
11:49:13:7770 Rx 1 0x210 s 7 FF FF 30 68 90 00 3A 
11:49:13:7780 Rx 1 0x4B0 s 8 27 10 27 10 27 10 27 10 
11:49:13:7910 Rx 1 0x210 s 7 FF FF 30 68 90 00 3B 
11:49:13:7920 Rx 1 0x4B0 s 8 27 10 27 10 27 10 27 10 
11:49:13:8050 Rx 1 0x210 s 7 FF FF 30 68 90 00 3C 
11:49:13:8060 Rx 1 0x4B0 s 8 27 10 27 10 27 10 27 10 
11:49:13:8080 Rx 1 0x301 s 8 00 00 00 02 00 00 00 FA 
11:49:13:8080 Rx 1 0x302 s 8 00 00 00 00 09 54 00 00 
11:49:13:8080 Rx 1 0x304 s 8 00 00 00 00 00 FA 00 FA 
11:49:13:8080 Rx 1 0x305 s 8 00 00 01 40 00 00 00 80 
11:49:13:8090 Rx 1 0x303 s 8 0F 59 00 00 00 00 00 00 
11:49:13:8180 Rx 1 0x251 s 8 20 00 00 00 EA CB 7E A6 
11:49:13:8190 Rx 1 0x210 s 7 FF FF 30 68 90 00 3D 
11:49:13:8200 Rx 1 0x4B0 s 8 27 10 27 10 27 10 27 10 
11:49:13:8280 Rx 1 0x263 s 6 01 00 00 81 01 00 
11:49:13:8320 Rx 1 0x495 s 2 7F 00 
11:49:13:8330 Rx 1 0x210 s 7 FF FF 30 68 90 00 3E 
11:49:13:8340 Rx 1 0x4B0 s 8 27 10 27 10 27 10 27 10 
11:49:13:8380 Rx 1 0x265 s 8 FC 00 00 00 00 00 00 00 
11:49:13:8380 Rx 1 0x250 s 8 2A 00 40 00 D7 E5 F9 21 
11:49:13:8390 Rx 1 0x440 s 8 12 70 09 05 40 00 00 00 
11:49:13:8390 Rx 1 0x441 s 8 00 00 00 00 00 00 00 00 
11:49:13:8390 Rx 1 0x442 s 8 00 00 00 00 00 00 00 00 
11:49:13:8400 Rx 1 0x443 s 8 00 00 00 00 00 00 00 00 
11:49:13:8400 Rx 1 0x444 s 8 31 20 00 00 00 00 00 00 
11:49:13:8410 Rx 1 0x460 s 8 03 E0 00 00 C0 00 00 00 
11:49:13:8470 Rx 1 0x210 s 7 FF FF 30 68 90 00 3F 
11:49:13:8480 Rx 1 0x4B0 s 8 27 10 27 10 27 10 27 10 
11:49:13:8480 Rx 1 0x310 s 3 02 00 00 
11:49:13:8610 Rx 1 0x210 s 7 FF FF 30 68 90 00 40 
11:49:13:8620 Rx 1 0x4B0 s 8 27 10 27 10 27 10 27 10 
11:49:13:8670 Rx 1 0x045 s 8 40 00 00 00 00 00 00 00 
11:49:13:8680 Rx 1 0x359 s 8 02 00 00 86 00 00 00 00 
11:49:13:8750 Rx 1 0x210 s 7 FF FF 30 68 90 00 41 
11:49:13:8760 Rx 1 0x4B0 s 8 27 10 27 10 27 10 27 10 
11:49:13:8830 Rx 1 0x610 s 8 00 00 00 00 19 19 00 00 
11:49:13:8830 Rx 1 0x611 s 8 06 1B 00 00 FA FA FA FA 
11:49:13:8890 Rx 1 0x210 s 7 FF FF 30 68 90 00 42 
11:49:13:8900 Rx 1 0x4B0 s 8 27 10 27 10 27 10 27 10 
11:49:13:9030 Rx 1 0x210 s 7 FF FF 30 68 90 00 43 
11:49:13:9040 Rx 1 0x4B0 s 8 27 10 27 10 27 10 27 10 
11:49:13:9170 Rx 1 0x210 s 7 FF FF 30 68 90 00 44 
11:49:13:9180 Rx 1 0x4B0 s 8 27 10 27 10 27 10 27 10 
11:49:13:9180 Rx 1 0x251 s 8 40 00 00 00 00 00 00 00 
11:49:13:9280 Rx 1 0x264 s 8 00 00 59 00 01 01 20 00 
11:49:13:9310 Rx 1 0x210 s 7 FF FF 30 68 90 00 45 
11:49:13:9320 Rx 1 0x4B0 s 8 27 10 27 10 27 10 27 10 
11:49:13:9320 Rx 1 0x495 s 2 7F 00 
11:49:13:9380 Rx 1 0x265 s 8 FC 00 00 00 00 00 00 00 
11:49:13:9380 Rx 1 0x250 s 8 08 00 40 00 00 00 00 00 
11:49:13:9410 Rx 1 0x023 s 1 40 
11:49:13:9410 Rx 1 0x460 s 8 03 E0 00 00 C0 00 00 00 
11:49:13:9420 Rx 1 0x345 s 8 24 44 40 00 00 00 00 00 
11:49:13:9420 Rx 1 0x344 s 4 FF FF FF FF 
11:49:13:9450 Rx 1 0x210 s 7 FF FF 30 68 90 00 46 
11:49:13:9460 Rx 1 0x4B0 s 8 27 10 27 10 27 10 27 10 
11:49:13:9480 Rx 1 0x311 s 2 00 00 
11:49:13:9590 Rx 1 0x210 s 7 FF FF 30 68 90 00 47 
11:49:13:9600 Rx 1 0x4B0 s 8 27 10 27 10 27 10 27 10 
11:49:13:9670 Rx 1 0x408 s 8 0F 02 81 30 00 1D 80 06 
11:49:13:9670 Rx 1 0x40B s 8 00 00 06 00 00 10 60 00 
11:49:13:9680 Rx 1 0x045 s 8 40 00 00 00 00 00 00 00 
11:49:13:9730 Rx 1 0x210 s 7 FF FF 30 68 90 00 48 
11:49:13:9740 Rx 1 0x4B0 s 8 27 10 27 10 27 10 27 10 
11:49:13:9870 Rx 1 0x210 s 7 FF FF 30 68 90 00 49 
11:49:13:9880 Rx 1 0x4B0 s 8 27 10 27 10 27 10 27 10 
11:49:14:0010 Rx 1 0x210 s 7 FF FF 30 68 90 00 4A 
11:49:14:0020 Rx 1 0x4B0 s 8 27 10 27 10 27 10 27 10 
11:49:14:0080 Rx 1 0x301 s 8 00 00 00 01 00 00 00 FA 
11:49:14:0080 Rx 1 0x302 s 8 00 00 00 00 09 54 00 00 
11:49:14:0080 Rx 1 0x304 s 8 00 00 00 00 00 FA 00 FA 
11:49:14:0080 Rx 1 0x305 s 8 00 00 01 40 00 00 00 80 
11:49:14:0090 Rx 1 0x303 s 8 0F 59 00 00 00 00 00 00 
11:49:14:0150 Rx 1 0x210 s 7 FF FF 30 68 90 00 4B 
11:49:14:0160 Rx 1 0x4B0 s 8 27 10 27 10 27 10 27 10 
11:49:14:0180 Rx 1 0x251 s 8 40 00 00 00 00 00 00 00 
11:49:14:0280 Rx 1 0x265 s 8 FC 00 00 00 00 00 00 00 
11:49:14:0290 Rx 1 0x210 s 7 FF FF 30 68 90 00 4C 
11:49:14:0300 Rx 1 0x4B0 s 8 27 10 27 10 27 10 27 10 
11:49:14:0320 Rx 1 0x495 s 2 7F 00 
11:49:14:0380 Rx 1 0x310 s 3 02 00 00 
11:49:14:0390 Rx 1 0x250 s 8 08 00 40 00 00 00 00 00 
11:49:14:0390 Rx 1 0x440 s 8 12 70 09 05 40 00 00 00 
11:49:14:0390 Rx 1 0x441 s 8 00 00 00 00 00 00 00 00 
11:49:14:0400 Rx 1 0x442 s 8 00 00 00 00 00 00 00 00 
11:49:14:0400 Rx 1 0x443 s 8 00 00 00 00 00 00 00 00 
11:49:14:0400 Rx 1 0x444 s 8 31 20 00 00 00 00 00 00 
11:49:14:0410 Rx 1 0x460 s 8 03 E0 00 00 C0 00 00 00 
11:49:14:0430 Rx 1 0x210 s 7 FF FF 30 68 90 00 4D 
11:49:14:0440 Rx 1 0x4B0 s 8 27 10 27 10 27 10 27 10 
11:49:14:0570 Rx 1 0x210 s 7 FF FF 30 68 90 00 4E 
11:49:14:0580 Rx 1 0x4B0 s 8 27 10 27 10 27 10 27 10 
11:49:14:0580 Rx 1 0x359 s 8 02 00 00 86 00 00 00 00 
11:49:14:0670 Rx 1 0x045 s 8 40 00 00 00 00 00 00 00 
11:49:14:0710 Rx 1 0x210 s 7 FF FF 30 68 90 00 4F 
11:49:14:0720 Rx 1 0x4B0 s 8 27 10 27 10 27 10 27 10 
11:49:14:0830 Rx 1 0x610 s 8 00 00 00 00 19 19 00 00 
11:49:14:0830 Rx 1 0x611 s 8 06 2B 00 00 FA FA FA FA 
11:49:14:0850 Rx 1 0x210 s 7 FF FF 30 68 90 00 50 
11:49:14:0860 Rx 1 0x4B0 s 8 27 10 27 10 27 10 27 10 
11:49:14:0990 Rx 1 0x210 s 7 FF FF 30 68 90 00 51 
11:49:14:1000 Rx 1 0x4B0 s 8 27 10 27 10 27 10 27 10 
11:49:14:1140 Rx 1 0x210 s 7 FF FF 30 68 90 00 52 
11:49:14:1140 Rx 1 0x4B0 s 8 27 10 27 10 27 10 27 10 
11:49:14:1180 Rx 1 0x251 s 8 40 00 00 00 00 00 00 00 
11:49:14:1280 Rx 1 0x210 s 7 FF FF 30 68 90 00 53 
11:49:14:1280 Rx 1 0x4B0 s 8 27 10 27 10 27 10 27 10 
11:49:14:1280 Rx 1 0x264 s 8 00 00 59 00 01 01 20 00 
11:49:14:1320 Rx 1 0x495 s 2 7F 00 
11:49:14:1380 Rx 1 0x265 s 8 FC 00 00 00 00 00 00 00 
11:49:14:1390 Rx 1 0x250 s 8 08 00 40 00 00 00 00 00 
11:49:14:1410 Rx 1 0x023 s 1 40 
11:49:14:1410 Rx 1 0x460 s 8 03 E0 00 00 C0 00 00 00 
11:49:14:1410 Rx 1 0x345 s 8 24 44 40 00 00 00 00 00 
11:49:14:1410 Rx 1 0x344 s 4 FF FF FF FF 
11:49:14:1420 Rx 1 0x210 s 7 FF FF 30 68 90 00 54 
11:49:14:1420 Rx 1 0x4B0 s 8 27 10 27 10 27 10 27 10 
11:49:14:1480 Rx 1 0x311 s 2 00 00 
11:49:14:1560 Rx 1 0x210 s 7 FF FF 30 68 90 00 55 
11:49:14:1560 Rx 1 0x4B0 s 8 27 10 27 10 27 10 27 10 
11:49:14:1670 Rx 1 0x045 s 8 40 00 00 00 00 00 00 00 
11:49:14:1700 Rx 1 0x210 s 7 FF FF 30 68 90 00 56 
11:49:14:1700 Rx 1 0x4B0 s 8 27 10 27 10 27 10 27 10 
11:49:14:1840 Rx 1 0x210 s 7 FF FF 30 68 90 00 57 
11:49:14:1840 Rx 1 0x4B0 s 8 27 10 27 10 27 10 27 10 
11:49:14:1970 Rx 1 0x409 s 8 18 00 00 00 80 00 00 00 
11:49:14:1980 Rx 1 0x210 s 7 FF FF 30 68 90 00 58 
11:49:14:1980 Rx 1 0x4B0 s 8 27 10 27 10 27 10 27 10 
11:49:14:2080 Rx 1 0x301 s 8 00 00 00 01 00 00 00 FA 
11:49:14:2080 Rx 1 0x302 s 8 00 00 00 00 09 54 00 00 
11:49:14:2080 Rx 1 0x304 s 8 00 00 00 00 00 FA 00 FA 
11:49:14:2080 Rx 1 0x305 s 8 00 00 01 40 00 00 00 80 
11:49:14:2090 Rx 1 0x303 s 8 0F 59 00 00 00 00 00 00 
11:49:14:2120 Rx 1 0x210 s 7 FF FF 30 68 90 00 59 
11:49:14:2120 Rx 1 0x4B0 s 8 27 10 27 10 27 10 27 10 
11:49:14:2180 Rx 1 0x251 s 8 40 00 00 00 00 00 00 00 
11:49:14:2260 Rx 1 0x210 s 7 FF FF 30 68 90 00 5A 
11:49:14:2260 Rx 1 0x4B0 s 8 27 10 27 10 27 10 27 10 
11:49:14:2280 Rx 1 0x265 s 8 FC 00 00 00 00 00 00 00 
11:49:14:2320 Rx 1 0x495 s 2 7F 00 
11:49:14:2380 Rx 1 0x310 s 3 02 00 00 
11:49:14:2390 Rx 1 0x250 s 8 08 00 40 00 00 00 00 00 
11:49:14:2390 Rx 1 0x440 s 8 12 70 09 05 40 00 00 00 
11:49:14:2400 Rx 1 0x210 s 7 FF FF 30 68 90 00 5B 
11:49:14:2400 Rx 1 0x441 s 8 00 00 00 00 00 00 00 00 
11:49:14:2400 Rx 1 0x4B0 s 8 27 10 27 10 27 10 27 10 
11:49:14:2400 Rx 1 0x442 s 8 00 00 00 00 00 00 00 00 
11:49:14:2410 Rx 1 0x460 s 8 03 E0 00 00 C0 00 00 00 
11:49:14:2410 Rx 1 0x443 s 8 00 00 00 00 00 00 00 00 
11:49:14:2410 Rx 1 0x444 s 8 31 20 00 00 00 00 00 00 
11:49:14:2420 Rx 1 0x3A0 s 8 00 00 03 E8 00 00 00 00 
11:49:14:2420 Rx 1 0x3A1 s 8 80 10 00 00 00 00 EB 81 
11:49:14:2540 Rx 1 0x210 s 7 FF FF 30 68 90 00 5C 
11:49:14:2540 Rx 1 0x4B0 s 8 27 10 27 10 27 10 27 10 
11:49:14:2580 Rx 1 0x359 s 8 02 00 00 86 00 00 00 00 
11:49:14:2660 Rx 1 0x045 s 8 40 00 00 00 00 00 00 00 
11:49:14:2680 Rx 1 0x210 s 7 FF FF 30 68 90 00 5D 
11:49:14:2680 Rx 1 0x4B0 s 8 27 10 27 10 27 10 27 10 
11:49:14:2820 Rx 1 0x210 s 7 FF FF 30 68 90 00 5E 
11:49:14:2820 Rx 1 0x4B0 s 8 27 10 27 10 27 10 27 10 
11:49:14:2830 Rx 1 0x610 s 8 06 90 00 00 19 19 00 00 
11:49:14:2830 Rx 1 0x300 s 8 02 04 27 00 00 3F 01 00 
11:49:14:2830 Rx 1 0x306 s 8 00 00 00 00 00 00 00 00 
11:49:14:2830 Rx 1 0x611 s 8 06 38 06 90 FA FA FA FA 
11:49:14:2840 Rx 1 0x722 s 8 00 00 00 00 00 00 00 00 
11:49:14:2840 Rx 1 0x723 s 8 00 80 00 01 A0 14 24 00 
11:49:14:2840 Rx 1 0x721 s 8 00 00 00 00 00 00 00 00 
11:49:14:2960 Rx 1 0x210 s 7 FF FF 30 68 90 00 5F 
11:49:14:2960 Rx 1 0x4B0 s 8 27 10 27 10 27 10 27 10 
11:49:14:3100 Rx 1 0x210 s 7 FF FF 30 68 90 00 60 
11:49:14:3100 Rx 1 0x4B0 s 8 27 10 27 10 27 10 27 10 
11:49:14:3180 Rx 1 0x251 s 8 40 00 00 00 00 00 00 00 
11:49:14:3240 Rx 1 0x210 s 7 FF FF 30 68 90 00 61 
11:49:14:3240 Rx 1 0x4B0 s 8 27 10 27 10 27 10 27 10 
11:49:14:3280 Rx 1 0x263 s 6 00 00 31 81 02 00 
11:49:14:3320 Rx 1 0x495 s 2 7F 00 
11:49:14:3380 Rx 1 0x210 s 7 FF FF 30 68 90 00 62 
11:49:14:3380 Rx 1 0x4B0 s 8 27 10 27 10 27 10 27 10 
11:49:14:3380 Rx 1 0x264 s 8 00 00 59 00 01 01 20 00 
11:49:14:3390 Rx 1 0x250 s 8 08 00 40 00 00 00 00 00 
11:49:14:3400 Rx 1 0x023 s 1 40 
11:49:14:3400 Rx 1 0x460 s 8 03 E0 00 00 C0 00 00 00 
11:49:14:3410 Rx 1 0x345 s 8 24 44 40 00 00 00 00 00 
11:49:14:3410 Rx 1 0x344 s 4 FF FF FF FF 
11:49:14:3480 Rx 1 0x265 s 8 FC 00 00 00 00 00 00 00 
11:49:14:3520 Rx 1 0x210 s 7 FF FF 30 68 90 00 63 
11:49:14:3520 Rx 1 0x4B0 s 8 27 10 27 10 27 10 27 10 
11:49:14:3580 Rx 1 0x311 s 2 00 00 
11:49:14:3660 Rx 1 0x210 s 7 FF FF 30 68 90 00 64 
11:49:14:3660 Rx 1 0x4B0 s 8 27 10 27 10 27 10 27 10 
11:49:14:3660 Rx 1 0x045 s 8 40 00 00 00 00 00 00 00 
11:49:14:3800 Rx 1 0x210 s 7 FF FF 30 68 90 00 65 
11:49:14:3800 Rx 1 0x4B0 s 8 27 10 27 10 27 10 27 10 
11:49:14:3940 Rx 1 0x210 s 7 FF FF 30 68 90 00 66 
11:49:14:3940 Rx 1 0x4B0 s 8 27 10 27 10 27 10 27 10 
11:49:14:4080 Rx 1 0x301 s 8 00 00 0D 39 00 00 00 FA 
11:49:14:4080 Rx 1 0x210 s 7 FF FF 30 68 90 00 67 
11:49:14:4080 Rx 1 0x304 s 8 00 00 00 00 00 FA 00 FA 
11:49:14:4080 Rx 1 0x302 s 8 00 00 00 00 0D 39 00 00 
11:49:14:4090 Rx 1 0x305 s 8 00 00 01 40 00 00 00 80 
11:49:14:4090 Rx 1 0x303 s 8 0F 59 00 00 00 00 00 00 
11:49:14:4090 Rx 1 0x4B0 s 8 27 10 27 10 27 10 27 10 
11:49:14:4180 Rx 1 0x251 s 8 40 00 00 00 00 00 00 00 
11:49:14:4220 Rx 1 0x210 s 7 FF FF 30 68 90 00 68 
11:49:14:4220 Rx 1 0x4B0 s 8 27 10 27 10 27 10 27 10 
11:49:14:4280 Rx 1 0x265 s 8 FC 00 00 00 00 00 00 00 
11:49:14:4320 Rx 1 0x495 s 2 7F 00 
11:49:14:4360 Rx 1 0x210 s 7 FF FF 30 68 90 00 69 
11:49:14:4360 Rx 1 0x4B0 s 8 27 10 27 10 27 10 27 10 
11:49:14:4380 Rx 1 0x310 s 3 02 00 00 
11:49:14:4390 Rx 1 0x250 s 8 08 00 40 00 00 00 00 00 
11:49:14:4390 Rx 1 0x440 s 8 12 70 09 05 40 00 00 00 
11:49:14:4400 Rx 1 0x441 s 8 00 00 00 00 00 00 00 00 
11:49:14:4400 Rx 1 0x442 s 8 00 00 00 00 00 00 00 00 
11:49:14:4400 Rx 1 0x460 s 8 03 E0 00 00 C0 00 00 00 
11:49:14:4410 Rx 1 0x443 s 8 00 00 00 00 00 00 00 00 
11:49:14:4410 Rx 1 0x444 s 8 31 20 00 00 00 00 00 00 
11:49:14:4500 Rx 1 0x210 s 7 FF FF 30 68 90 00 6A 
11:49:14:4500 Rx 1 0x4B0 s 8 27 10 27 10 27 10 27 10 
11:49:14:4580 Rx 1 0x359 s 8 02 00 00 86 00 00 00 00 
11:49:14:4640 Rx 1 0x210 s 7 FF FF 30 68 90 00 6B 
11:49:14:4640 Rx 1 0x4B0 s 8 27 10 27 10 27 10 27 10 
11:49:14:4660 Rx 1 0x408 s 8 0F 02 81 30 00 1D 80 06 
11:49:14:4670 Rx 1 0x40B s 8 00 00 06 00 00 10 60 00 
11:49:14:4670 Rx 1 0x045 s 8 40 00 00 00 00 00 00 00 
11:49:14:4780 Rx 1 0x210 s 7 FF FF 30 68 90 00 6C 
11:49:14:4780 Rx 1 0x4B0 s 8 27 10 27 10 27 10 27 10 
11:49:14:4830 Rx 1 0x610 s 8 06 90 00 00 19 19 00 00 
11:49:14:4830 Rx 1 0x611 s 8 06 41 06 90 FA FA FA FA 
11:49:14:4920 Rx 1 0x210 s 7 FF FF 30 68 90 00 6D 
11:49:14:4920 Rx 1 0x4B0 s 8 27 10 27 10 27 10 27 10 
11:49:14:5060 Rx 1 0x210 s 7 FF FF 30 68 90 00 6E 
11:49:14:5060 Rx 1 0x4B0 s 8 27 10 27 10 27 10 27 10 
11:49:14:5180 Rx 1 0x251 s 8 40 00 00 00 00 00 00 00 
11:49:14:5200 Rx 1 0x210 s 7 FF FF 30 68 90 00 6F 
11:49:14:5200 Rx 1 0x4B0 s 8 27 10 27 10 27 10 27 10 
11:49:14:5280 Rx 1 0x264 s 8 00 00 59 00 01 01 20 00 
11:49:14:5320 Rx 1 0x495 s 2 7F 00 
11:49:14:5340 Rx 1 0x210 s 7 FF FF 30 68 90 00 70 
11:49:14:5340 Rx 1 0x4B0 s 8 27 10 27 10 27 10 27 10 
11:49:14:5380 Rx 1 0x265 s 8 FC 00 00 00 00 00 00 00 
11:49:14:5390 Rx 1 0x250 s 8 08 00 40 00 00 00 00 00 
11:49:14:5400 Rx 1 0x023 s 1 40 
11:49:14:5400 Rx 1 0x460 s 8 03 E0 00 00 C0 00 00 00 
11:49:14:5410 Rx 1 0x345 s 8 24 44 40 00 00 00 00 00 
11:49:14:5410 Rx 1 0x344 s 4 FF FF FF FF 
11:49:14:5480 Rx 1 0x210 s 7 FF FF 30 68 90 00 71 
11:49:14:5480 Rx 1 0x4B0 s 8 27 10 27 10 27 10 27 10 
11:49:14:5480 Rx 1 0x311 s 2 00 00 
11:49:14:5620 Rx 1 0x210 s 7 FF FF 30 68 90 00 72 
11:49:14:5620 Rx 1 0x4B0 s 8 27 10 27 10 27 10 27 10 
11:49:14:5660 Rx 1 0x045 s 8 40 00 00 00 00 00 00 00 
11:49:14:5760 Rx 1 0x210 s 7 FF FF 30 68 90 00 73 
11:49:14:5760 Rx 1 0x4B0 s 8 27 10 27 10 27 10 27 10 
11:49:14:5900 Rx 1 0x210 s 7 FF FF 30 68 90 00 74 
11:49:14:5900 Rx 1 0x4B0 s 8 27 10 27 10 27 10 27 10 
11:49:14:6040 Rx 1 0x210 s 7 FF FF 30 68 90 00 75 
11:49:14:6040 Rx 1 0x4B0 s 8 27 10 27 10 27 10 27 10 
11:49:14:6080 Rx 1 0x301 s 8 00 00 0F 46 00 00 00 F0 
11:49:14:6080 Rx 1 0x302 s 8 00 00 00 00 0F 46 00 00 
11:49:14:6080 Rx 1 0x304 s 8 00 00 00 00 00 F0 00 F0 
11:49:14:6080 Rx 1 0x305 s 8 00 00 01 40 00 00 00 80 
11:49:14:6090 Rx 1 0x303 s 8 0F 59 00 00 00 00 00 00 
11:49:14:6180 Rx 1 0x210 s 7 FF FF 30 68 90 00 76 
11:49:14:6180 Rx 1 0x251 s 8 40 00 00 00 00 00 00 00 
11:49:14:6180 Rx 1 0x4B0 s 8 27 10 27 10 27 10 27 10 
11:49:14:6280 Rx 1 0x265 s 8 FC 00 00 00 00 00 00 00 
11:49:14:6320 Rx 1 0x495 s 2 7F 00 
11:49:14:6320 Rx 1 0x210 s 7 FF FF 30 68 90 00 77 
11:49:14:6320 Rx 1 0x4B0 s 8 27 10 27 10 27 10 27 10 
11:49:14:6380 Rx 1 0x310 s 3 02 00 00 
11:49:14:6390 Rx 1 0x250 s 8 08 00 40 00 00 00 00 00 
11:49:14:6400 Rx 1 0x460 s 8 03 E0 00 00 C0 00 00 00 
11:49:14:6400 Rx 1 0x440 s 8 12 70 09 05 40 00 00 00 
11:49:14:6400 Rx 1 0x441 s 8 00 00 00 00 00 00 00 00 
11:49:14:6410 Rx 1 0x442 s 8 00 00 00 00 00 00 00 00 
11:49:14:6410 Rx 1 0x443 s 8 00 00 00 00 00 00 00 00 
11:49:14:6410 Rx 1 0x444 s 8 31 20 00 00 00 00 00 00 
11:49:14:6460 Rx 1 0x210 s 7 FF FF 30 68 90 00 78 
11:49:14:6460 Rx 1 0x4B0 s 8 27 10 27 10 27 10 27 10 
11:49:14:6580 Rx 1 0x359 s 8 02 00 00 86 00 00 00 00 
11:49:14:6600 Rx 1 0x210 s 7 FF FF 30 68 90 00 79 
11:49:14:6600 Rx 1 0x4B0 s 8 27 10 27 10 27 10 27 10 
11:49:14:6660 Rx 1 0x045 s 8 40 00 00 00 00 00 00 00 
11:49:14:6740 Rx 1 0x210 s 7 FF FF 30 68 90 00 7A 
11:49:14:6740 Rx 1 0x4B0 s 8 27 10 27 10 27 10 27 10 
11:49:14:6830 Rx 1 0x610 s 8 06 90 00 00 18 18 00 00 
11:49:14:6830 Rx 1 0x611 s 8 06 53 06 90 FA FA FA FA 
11:49:14:6880 Rx 1 0x210 s 7 FF FF 30 68 90 00 7B 
11:49:14:6880 Rx 1 0x4B0 s 8 27 10 27 10 27 10 27 10 
11:49:14:6960 Rx 1 0x409 s 8 18 00 00 00 80 00 00 00 
11:49:14:7020 Rx 1 0x210 s 7 FF FF 30 68 90 00 7C 
11:49:14:7030 Rx 1 0x4B0 s 8 27 10 27 10 27 10 27 10 
11:49:14:7160 Rx 1 0x210 s 7 FF FF 30 68 90 00 7D 
11:49:14:7170 Rx 1 0x4B0 s 8 27 10 27 10 27 10 27 10 
11:49:14:7180 Rx 1 0x251 s 8 40 00 00 00 00 00 00 00 
11:49:14:7280 Rx 1 0x264 s 8 00 00 59 00 01 01 20 00 
11:49:14:7300 Rx 1 0x210 s 7 FF FF 30 68 90 00 7E 
11:49:14:7310 Rx 1 0x4B0 s 8 27 10 27 10 27 10 27 10 
11:49:14:7320 Rx 1 0x495 s 2 7F 00 
11:49:14:7380 Rx 1 0x265 s 8 FC 00 00 00 00 00 00 00 
11:49:14:7390 Rx 1 0x023 s 1 40 
11:49:14:7400 Rx 1 0x250 s 8 08 00 40 00 00 00 00 00 
11:49:14:7400 Rx 1 0x460 s 8 03 E0 00 00 C0 00 00 00 
11:49:14:7400 Rx 1 0x3A0 s 8 00 00 03 E8 00 00 00 00 
11:49:14:7410 Rx 1 0x3A1 s 8 80 10 00 00 31 00 EB 81 
11:49:14:7410 Rx 1 0x345 s 8 24 44 40 00 00 00 00 00 
11:49:14:7410 Rx 1 0x344 s 4 FF FF FF FF 
11:49:14:7440 Rx 1 0x210 s 7 FF FF 30 68 90 00 7F 
11:49:14:7450 Rx 1 0x4B0 s 8 27 10 27 10 27 10 27 10 
11:49:14:7480 Rx 1 0x311 s 2 00 00 
11:49:14:7580 Rx 1 0x210 s 7 FF FF 30 68 90 00 80 
11:49:14:7590 Rx 1 0x4B0 s 8 27 10 27 10 27 10 27 10 
11:49:14:7660 Rx 1 0x045 s 8 40 00 00 00 00 00 00 00 
11:49:14:7720 Rx 1 0x210 s 7 FF FF 30 68 90 00 81 
11:49:14:7730 Rx 1 0x4B0 s 8 27 10 27 10 27 10 27 10 
11:49:14:7860 Rx 1 0x210 s 7 FF FF 30 68 90 00 82 
11:49:14:7870 Rx 1 0x4B0 s 8 27 10 27 10 27 10 27 10 
11:49:14:8000 Rx 1 0x210 s 7 FF FF 30 68 90 00 83 
11:49:14:8010 Rx 1 0x4B0 s 8 27 10 27 10 27 10 27 10 
11:49:14:8080 Rx 1 0x301 s 8 00 00 0F 69 00 00 00 F0 
11:49:14:8080 Rx 1 0x302 s 8 00 00 00 00 0F 69 00 00 
11:49:14:8080 Rx 1 0x304 s 8 00 00 00 00 00 F0 00 F0 
11:49:14:8080 Rx 1 0x305 s 8 00 00 01 40 00 00 00 80 
11:49:14:8090 Rx 1 0x303 s 8 0F 59 00 00 00 00 00 00 
11:49:14:8150 Rx 1 0x210 s 7 FF FF 30 68 90 00 84 
11:49:14:8150 Rx 1 0x4B0 s 8 27 10 27 10 27 10 27 10 
11:49:14:8180 Rx 1 0x251 s 8 40 00 00 00 00 00 00 00 
11:49:14:8280 Rx 1 0x263 s 6 00 00 31 81 03 00 
11:49:14:8280 Rx 1 0x210 s 7 FF FF 30 68 90 00 85 
11:49:14:8290 Rx 1 0x4B0 s 8 27 10 27 10 27 10 27 10 
11:49:14:8320 Rx 1 0x495 s 2 7F 00 
11:49:14:8380 Rx 1 0x265 s 8 FC 00 00 00 00 00 00 00 
11:49:14:8390 Rx 1 0x460 s 8 03 E0 00 00 C0 00 00 00 
11:49:14:8400 Rx 1 0x250 s 8 08 00 40 00 00 00 00 00 
11:49:14:8400 Rx 1 0x440 s 8 12 70 09 05 40 00 00 00 
11:49:14:8400 Rx 1 0x441 s 8 00 00 00 00 00 00 00 00 
11:49:14:8410 Rx 1 0x442 s 8 00 00 00 00 00 00 00 00 
11:49:14:8410 Rx 1 0x443 s 8 00 00 00 00 00 00 00 00 
11:49:14:8410 Rx 1 0x444 s 8 31 20 00 00 00 00 00 00 
11:49:14:8420 Rx 1 0x210 s 7 FF FF 30 68 90 00 86 
11:49:14:8430 Rx 1 0x4B0 s 8 27 10 27 10 27 10 27 10 
11:49:14:8480 Rx 1 0x310 s 3 02 00 00 
11:49:14:8560 Rx 1 0x210 s 7 FF FF 30 68 90 00 87 
11:49:14:8570 Rx 1 0x4B0 s 8 27 10 27 10 27 10 27 10 
11:49:14:8660 Rx 1 0x045 s 8 40 00 00 00 00 00 00 00 
11:49:14:8680 Rx 1 0x359 s 8 02 00 00 86 00 00 00 00 
11:49:14:8710 Rx 1 0x210 s 7 FF FF 30 68 90 00 88 
11:49:14:8710 Rx 1 0x4B0 s 8 27 10 27 10 27 10 27 10 
11:49:14:8830 Rx 1 0x610 s 8 06 90 02 0B 18 18 00 00 
11:49:14:8830 Rx 1 0x611 s 8 06 64 04 85 FA FA FA FA 
11:49:14:8850 Rx 1 0x210 s 7 FF FF 30 68 90 00 89 
11:49:14:8850 Rx 1 0x4B0 s 8 27 10 27 10 27 10 27 10 
11:49:14:8990 Rx 1 0x210 s 7 FF FF 30 68 90 00 8A 
11:49:14:8990 Rx 1 0x4B0 s 8 27 10 27 10 27 10 27 10 
11:49:14:9130 Rx 1 0x210 s 7 FF FF 30 68 90 00 8B 
11:49:14:9130 Rx 1 0x4B0 s 8 27 10 27 10 27 10 27 10 
11:49:14:9180 Rx 1 0x251 s 8 40 00 00 00 00 00 00 00 
11:49:14:9270 Rx 1 0x210 s 7 FF FF 30 68 90 00 8C 
11:49:14:9270 Rx 1 0x4B0 s 8 27 10 27 10 27 10 27 10 
11:49:14:9280 Rx 1 0x264 s 8 00 00 59 00 01 01 20 00 
11:49:14:9320 Rx 1 0x495 s 2 7F 00 
11:49:14:9380 Rx 1 0x265 s 8 FC 00 00 00 00 00 00 00 
11:49:14:9390 Rx 1 0x023 s 1 40 
11:49:14:9390 Rx 1 0x460 s 8 03 E0 00 00 C0 00 00 00 
11:49:14:9400 Rx 1 0x250 s 8 08 00 40 00 00 00 00 00 
11:49:14:9410 Rx 1 0x210 s 7 FF FF 30 68 90 00 8D 
11:49:14:9410 Rx 1 0x4B0 s 8 27 10 27 10 27 10 27 10 
11:49:14:9420 Rx 1 0x345 s 8 24 44 40 00 00 00 00 00 
11:49:14:9430 Rx 1 0x344 s 4 FF FF FF FF 
11:49:14:9480 Rx 1 0x311 s 2 00 00 
11:49:14:9550 Rx 1 0x210 s 7 FF FF 30 68 90 00 8E 
11:49:14:9550 Rx 1 0x4B0 s 8 27 10 27 10 27 10 27 10 
11:49:14:9660 Rx 1 0x408 s 8 0F 02 81 30 00 1D 80 06 
11:49:14:9670 Rx 1 0x40B s 8 00 00 06 00 00 10 60 00 
11:49:14:9670 Rx 1 0x045 s 8 40 00 00 00 00 00 00 00 
11:49:14:9690 Rx 1 0x210 s 7 FF FF 30 68 90 00 8F 
11:49:14:9690 Rx 1 0x4B0 s 8 27 10 27 10 27 10 27 10 
11:49:14:9830 Rx 1 0x210 s 7 FF FF 30 68 90 00 90 
11:49:14:9830 Rx 1 0x4B0 s 8 27 10 27 10 27 10 27 10 
11:49:14:9970 Rx 1 0x210 s 7 FF FF 30 68 90 00 91 
11:49:14:9970 Rx 1 0x4B0 s 8 27 10 27 10 27 10 27 10 
11:49:15:0080 Rx 1 0x301 s 8 00 00 0F 5C 00 00 00 F0 
11:49:15:0080 Rx 1 0x302 s 8 00 00 00 00 0F 5C 00 00 
11:49:15:0080 Rx 1 0x304 s 8 00 00 00 00 00 F0 00 F0 
11:49:15:0080 Rx 1 0x305 s 8 00 00 01 40 00 00 00 80 
11:49:15:0090 Rx 1 0x303 s 8 0F 59 00 00 00 00 00 00 
11:49:15:0110 Rx 1 0x210 s 7 FF FF 30 68 90 00 92 
11:49:15:0110 Rx 1 0x4B0 s 8 27 10 27 10 27 10 27 10 
11:49:15:0180 Rx 1 0x251 s 8 40 00 00 00 00 00 00 00 
11:49:15:0250 Rx 1 0x210 s 7 FF FF 30 68 90 00 93 
11:49:15:0250 Rx 1 0x4B0 s 8 27 10 27 10 27 10 27 10 
11:49:15:0280 Rx 1 0x265 s 8 FC 00 00 00 00 00 00 00 
11:49:15:0320 Rx 1 0x495 s 2 7F 00 
11:49:15:0380 Rx 1 0x310 s 3 02 00 00 
11:49:15:0390 Rx 1 0x210 s 7 FF FF 30 68 90 00 94 
11:49:15:0390 Rx 1 0x4B0 s 8 27 10 27 10 27 10 27 10 
11:49:15:0390 Rx 1 0x460 s 8 03 E0 00 00 C0 00 00 00 
11:49:15:0400 Rx 1 0x250 s 8 08 00 40 00 00 00 00 00 
11:49:15:0400 Rx 1 0x440 s 8 12 70 09 05 40 00 00 00 
11:49:15:0410 Rx 1 0x441 s 8 00 00 00 00 00 00 00 00 
11:49:15:0410 Rx 1 0x442 s 8 00 00 00 00 00 00 00 00 
11:49:15:0410 Rx 1 0x443 s 8 00 00 00 00 00 00 00 00 
11:49:15:0420 Rx 1 0x444 s 8 31 20 00 00 00 00 00 00 
11:49:15:0530 Rx 1 0x210 s 7 FF FF 30 68 90 00 95 
11:49:15:0530 Rx 1 0x4B0 s 8 27 10 27 10 27 10 27 10 
11:49:15:0580 Rx 1 0x359 s 8 02 00 00 86 00 00 00 00 
11:49:15:0660 Rx 1 0x045 s 8 40 00 00 00 00 00 00 00 
11:49:15:0670 Rx 1 0x210 s 7 FF FF 30 68 90 00 96 
11:49:15:0670 Rx 1 0x4B0 s 8 27 10 27 10 27 10 27 10 
11:49:15:0810 Rx 1 0x210 s 7 FF FF 30 68 90 00 97 
11:49:15:0810 Rx 1 0x4B0 s 8 27 10 27 10 27 10 27 10 
11:49:15:0830 Rx 1 0x610 s 8 06 90 03 73 18 18 00 00 
11:49:15:0830 Rx 1 0x611 s 8 06 70 03 1D FA FA FA FA 
11:49:15:0950 Rx 1 0x210 s 7 FF FF 30 68 90 00 98 
11:49:15:0950 Rx 1 0x4B0 s 8 27 10 27 10 27 10 27 10 
11:49:15:1090 Rx 1 0x210 s 7 FF FF 30 68 90 00 99 
11:49:15:1090 Rx 1 0x4B0 s 8 27 10 27 10 27 10 27 10 
11:49:15:1180 Rx 1 0x251 s 8 40 00 00 00 00 00 00 00 
11:49:15:1230 Rx 1 0x210 s 7 FF FF 30 68 90 00 9A 
11:49:15:1230 Rx 1 0x4B0 s 8 27 10 27 10 27 10 27 10 
11:49:15:1280 Rx 1 0x264 s 8 00 00 59 00 01 01 20 00 
11:49:15:1310 Rx 1 0x495 s 2 7F 00 
11:49:15:1370 Rx 1 0x210 s 7 FF FF 30 68 90 00 9B 
11:49:15:1370 Rx 1 0x4B0 s 8 27 10 27 10 27 10 27 10 
11:49:15:1380 Rx 1 0x265 s 8 FC 00 00 00 00 00 00 00 
11:49:15:1390 Rx 1 0x023 s 1 40 
11:49:15:1390 Rx 1 0x460 s 8 03 E0 00 00 C0 00 00 00 
11:49:15:1400 Rx 1 0x250 s 8 08 00 40 00 00 00 00 00 
11:49:15:1410 Rx 1 0x345 s 8 24 44 40 00 00 00 00 00 
11:49:15:1410 Rx 1 0x344 s 4 FF FF FF FF 
11:49:15:1480 Rx 1 0x311 s 2 00 00 
11:49:15:1510 Rx 1 0x210 s 7 FF FF 30 68 90 00 9C 
11:49:15:1510 Rx 1 0x4B0 s 8 27 10 27 10 27 10 27 10 
11:49:15:1650 Rx 1 0x210 s 7 FF FF 30 68 90 00 9D 
11:49:15:1650 Rx 1 0x4B0 s 8 27 10 27 10 27 10 27 10 
11:49:15:1660 Rx 1 0x045 s 8 40 00 00 00 00 00 00 00 
11:49:15:1790 Rx 1 0x210 s 7 FF FF 30 68 90 00 9E 
11:49:15:1790 Rx 1 0x4B0 s 8 27 10 27 10 27 10 27 10 
11:49:15:1930 Rx 1 0x210 s 7 FF FF 30 68 90 00 9F 
11:49:15:1930 Rx 1 0x4B0 s 8 27 10 27 10 27 10 27 10 
11:49:15:1950 Rx 1 0x409 s 8 18 00 00 00 80 00 00 00 
11:49:15:2070 Rx 1 0x210 s 7 FF FF 30 68 90 00 A0 
11:49:15:2070 Rx 1 0x4B0 s 8 27 10 27 10 27 10 27 10 
11:49:15:2080 Rx 1 0x301 s 8 00 03 0F 5E 00 00 00 E6 
11:49:15:2080 Rx 1 0x302 s 8 00 00 00 00 09 54 08 A2 
11:49:15:2080 Rx 1 0x304 s 8 00 00 00 00 00 E6 00 E6 
11:49:15:2090 Rx 1 0x305 s 8 00 00 01 40 00 00 00 80 
11:49:15:2090 Rx 1 0x303 s 8 0F 59 00 00 04 00 00 00 
11:49:15:2180 Rx 1 0x251 s 8 40 00 00 00 00 00 00 00 
11:49:15:2210 Rx 1 0x210 s 7 FF FF 30 68 90 00 A1 
11:49:15:2210 Rx 1 0x4B0 s 8 27 10 27 10 27 10 27 10 
11:49:15:2280 Rx 1 0x265 s 8 FF F7 00 00 00 00 00 00 
11:49:15:2320 Rx 1 0x495 s 2 7F 00 
11:49:15:2350 Rx 1 0x210 s 7 FF FF 30 68 90 00 A2 
11:49:15:2350 Rx 1 0x4B0 s 8 27 10 27 10 27 10 27 10 
11:49:15:2380 Rx 1 0x310 s 3 02 00 00 
11:49:15:2380 Rx 1 0x460 s 8 03 E0 00 00 C0 00 00 00 
11:49:15:2400 Rx 1 0x250 s 8 08 00 40 00 00 00 00 00 
11:49:15:2410 Rx 1 0x440 s 8 12 70 09 05 40 00 00 00 
11:49:15:2410 Rx 1 0x441 s 8 00 00 00 00 00 00 00 00 
11:49:15:2410 Rx 1 0x442 s 8 00 00 00 00 00 00 00 00 
11:49:15:2420 Rx 1 0x443 s 8 00 00 00 00 00 00 00 00 
11:49:15:2420 Rx 1 0x444 s 8 31 20 00 00 00 00 00 00 
11:49:15:2420 Rx 1 0x3A0 s 8 00 00 03 E8 00 00 00 00 
11:49:15:2430 Rx 1 0x3A1 s 8 80 18 00 00 31 00 EB 81 
11:49:15:2490 Rx 1 0x210 s 7 FF FF 30 68 90 00 A3 
11:49:15:2490 Rx 1 0x4B0 s 8 27 10 27 10 27 10 27 10 
11:49:15:2580 Rx 1 0x359 s 8 02 00 00 86 00 00 00 00 
11:49:15:2630 Rx 1 0x210 s 7 FF FF 30 68 90 00 A4 
11:49:15:2630 Rx 1 0x4B0 s 8 27 10 27 10 27 10 27 10 
11:49:15:2650 Rx 1 0x045 s 8 40 00 82 00 00 00 00 00 
11:49:15:2770 Rx 1 0x210 s 7 FF FF 30 68 90 00 A5 
11:49:15:2770 Rx 1 0x4B0 s 8 27 10 27 10 27 10 27 10 
11:49:15:2830 Rx 1 0x610 s 8 06 90 04 6A 17 17 00 00 
11:49:15:2830 Rx 1 0x300 s 8 02 04 27 00 00 3F 01 00 
11:49:15:2830 Rx 1 0x306 s 8 00 00 00 00 00 00 00 00 
11:49:15:2840 Rx 1 0x611 s 8 06 77 02 26 F9 FA FA FA 
11:49:15:2840 Rx 1 0x722 s 8 00 00 00 00 00 00 00 00 
11:49:15:2840 Rx 1 0x723 s 8 00 80 00 01 A0 14 24 00 
11:49:15:2840 Rx 1 0x721 s 8 00 00 00 00 00 00 00 00 
11:49:15:2910 Rx 1 0x210 s 7 FF FF 30 68 90 00 A6 
11:49:15:2910 Rx 1 0x4B0 s 8 27 10 27 10 27 10 27 10 
11:49:15:3050 Rx 1 0x210 s 7 FF FF 30 68 90 00 A7 
11:49:15:3050 Rx 1 0x4B0 s 8 27 10 27 10 27 10 27 10 
11:49:15:3180 Rx 1 0x251 s 8 40 00 00 00 00 00 00 00 
11:49:15:3190 Rx 1 0x210 s 7 FF FF 30 68 90 00 A8 
11:49:15:3190 Rx 1 0x4B0 s 8 27 10 27 10 27 10 27 10 
11:49:15:3280 Rx 1 0x263 s 6 00 00 31 80 04 00 
11:49:15:3310 Rx 1 0x495 s 2 7F 00 
11:49:15:3330 Rx 1 0x210 s 7 FF FF 30 68 90 00 A9 
11:49:15:3330 Rx 1 0x4B0 s 8 27 10 27 10 27 10 27 10 
11:49:15:3380 Rx 1 0x264 s 8 00 00 51 00 01 01 20 00 
11:49:15:3380 Rx 1 0x023 s 1 40 
11:49:15:3390 Rx 1 0x460 s 8 03 E0 00 00 C0 00 00 00 
11:49:15:3410 Rx 1 0x250 s 8 08 00 40 00 00 00 00 00 
11:49:15:3410 Rx 1 0x345 s 8 24 44 40 00 00 00 00 00 
11:49:15:3410 Rx 1 0x344 s 4 FF FF FF FF 
11:49:15:3470 Rx 1 0x210 s 7 FF FF 30 68 90 00 AA 
11:49:15:3470 Rx 1 0x4B0 s 8 27 10 27 10 27 10 27 10 
11:49:15:3480 Rx 1 0x265 s 8 FF FE 00 00 00 00 00 00 
11:49:15:3580 Rx 1 0x311 s 2 00 00 
11:49:15:3610 Rx 1 0x210 s 7 FF FF 30 68 90 00 AB 
11:49:15:3610 Rx 1 0x4B0 s 8 27 10 27 10 27 10 27 10 
11:49:15:3650 Rx 1 0x045 s 8 40 00 82 00 00 00 00 00 
11:49:15:3750 Rx 1 0x210 s 7 FF FF 30 68 90 00 AC 
11:49:15:3750 Rx 1 0x4B0 s 8 27 10 27 10 27 10 27 10 
11:49:15:3890 Rx 1 0x210 s 7 FF FF 30 68 90 00 AD 
11:49:15:3890 Rx 1 0x4B0 s 8 27 10 27 10 27 10 27 10 
11:49:15:4030 Rx 1 0x210 s 7 FF FF 30 68 90 00 AE 
11:49:15:4030 Rx 1 0x4B0 s 8 27 10 27 10 27 10 27 10 
11:49:15:4080 Rx 1 0x301 s 8 00 02 0F 5F 00 00 00 E6 
11:49:15:4080 Rx 1 0x302 s 8 00 00 00 00 09 54 08 A2 
11:49:15:4080 Rx 1 0x304 s 8 00 00 00 00 00 FA 00 DC 
11:49:15:4090 Rx 1 0x305 s 8 00 00 01 40 00 00 00 80 
11:49:15:4090 Rx 1 0x303 s 8 0F 59 00 14 06 00 00 00 
11:49:15:4170 Rx 1 0x210 s 7 FF FF 30 68 90 00 AF 
11:49:15:4170 Rx 1 0x4B0 s 8 27 10 27 10 27 10 27 10 
11:49:15:4180 Rx 1 0x251 s 8 40 00 00 00 00 00 00 00 
11:49:15:4280 Rx 1 0x265 s 8 FF FF 00 00 00 00 00 00 
11:49:15:4310 Rx 1 0x210 s 7 FF FF 30 68 90 00 B0 
11:49:15:4310 Rx 1 0x4B0 s 8 27 10 27 10 27 10 27 10 
11:49:15:4310 Rx 1 0x495 s 2 7F 00 
11:49:15:4380 Rx 1 0x460 s 8 03 E0 00 00 C0 00 00 00 
11:49:15:4380 Rx 1 0x310 s 3 02 00 00 
11:49:15:4410 Rx 1 0x250 s 8 08 00 40 00 00 00 00 00 
11:49:15:4410 Rx 1 0x440 s 8 12 70 09 05 40 00 00 00 
11:49:15:4410 Rx 1 0x441 s 8 00 00 00 00 00 00 00 00 
11:49:15:4420 Rx 1 0x442 s 8 00 00 00 00 00 00 00 00 
11:49:15:4420 Rx 1 0x443 s 8 00 00 00 00 00 00 00 00 
11:49:15:4420 Rx 1 0x444 s 8 31 20 00 00 00 00 00 00 
11:49:15:4450 Rx 1 0x210 s 7 FF FF 30 68 90 00 B1 
11:49:15:4450 Rx 1 0x4B0 s 8 27 10 27 10 27 10 27 10 
11:49:15:4580 Rx 1 0x359 s 8 02 00 00 86 00 00 00 00 
11:49:15:4590 Rx 1 0x210 s 7 FF FF 30 68 90 00 B2 
11:49:15:4590 Rx 1 0x4B0 s 8 27 10 27 10 27 10 27 10 
11:49:15:4650 Rx 1 0x408 s 8 0F 02 84 30 80 1C 80 06 
11:49:15:4660 Rx 1 0x40B s 8 00 00 06 00 01 10 60 00 
11:49:15:4670 Rx 1 0x045 s 8 40 00 92 00 00 00 00 00 
11:49:15:4730 Rx 1 0x210 s 7 FF FF 30 68 90 00 B3 
11:49:15:4730 Rx 1 0x4B0 s 8 27 10 27 10 27 10 27 10 
11:49:15:4830 Rx 1 0x610 s 8 06 90 04 E3 19 16 00 00 
11:49:15:4830 Rx 1 0x611 s 8 06 7D 01 AD F9 FA FA FA 
11:49:15:4870 Rx 1 0x210 s 7 FF FF 30 68 90 00 B4 
11:49:15:4870 Rx 1 0x4B0 s 8 27 10 27 10 27 10 27 10 
11:49:15:5010 Rx 1 0x210 s 7 FF FF 30 68 90 00 B5 
11:49:15:5010 Rx 1 0x4B0 s 8 27 10 27 10 27 10 27 10 
11:49:15:5150 Rx 1 0x210 s 7 FF FF 30 68 90 00 B6 
11:49:15:5150 Rx 1 0x4B0 s 8 27 10 27 10 27 10 27 10 
11:49:15:5180 Rx 1 0x251 s 8 40 00 00 00 00 00 00 00 
11:49:15:5280 Rx 1 0x264 s 8 00 00 51 00 01 01 20 00 
11:49:15:5290 Rx 1 0x210 s 7 FF FF 30 68 90 00 B7 
11:49:15:5290 Rx 1 0x4B0 s 8 27 10 27 10 27 10 27 10 
11:49:15:5310 Rx 1 0x495 s 2 7F 00 
11:49:15:5380 Rx 1 0x023 s 1 40 
11:49:15:5380 Rx 1 0x460 s 8 03 E0 00 00 C0 00 00 00 
11:49:15:5380 Rx 1 0x265 s 8 FF FF 00 00 00 00 00 00 
11:49:15:5410 Rx 1 0x250 s 8 08 00 40 00 00 00 00 00 
11:49:15:5410 Rx 1 0x345 s 8 24 44 40 00 00 00 00 00 
11:49:15:5410 Rx 1 0x344 s 4 FF FF FF FF 
11:49:15:5430 Rx 1 0x210 s 7 FF FF 30 68 90 00 B8 
11:49:15:5430 Rx 1 0x4B0 s 8 27 10 27 10 27 10 27 10 
11:49:15:5480 Rx 1 0x311 s 2 00 00 
11:49:15:5570 Rx 1 0x210 s 7 FF FF 30 68 90 00 B9 
11:49:15:5570 Rx 1 0x4B0 s 8 27 10 27 10 27 10 27 10 
11:49:15:5650 Rx 1 0x045 s 8 40 00 92 00 00 00 00 00 
11:49:15:5710 Rx 1 0x210 s 7 FF FF 30 68 90 00 BA 
11:49:15:5710 Rx 1 0x4B0 s 8 27 10 27 10 27 10 27 10 
11:49:15:5850 Rx 1 0x210 s 7 FF FF 30 68 90 00 BB 
11:49:15:5850 Rx 1 0x4B0 s 8 27 10 27 10 27 10 27 10 
11:49:15:5990 Rx 1 0x210 s 7 FF FF 30 68 90 00 BC 
11:49:15:5990 Rx 1 0x4B0 s 8 27 10 27 10 27 10 27 10 
11:49:15:6080 Rx 1 0x301 s 8 00 01 0F 5F 00 00 00 E6 
11:49:15:6080 Rx 1 0x302 s 8 00 00 00 00 09 54 08 A2 
11:49:15:6080 Rx 1 0x304 s 8 00 00 00 00 00 FA 00 DC 
11:49:15:6090 Rx 1 0x305 s 8 00 00 01 40 00 00 00 80 
11:49:15:6090 Rx 1 0x303 s 8 0F 59 00 14 06 00 00 00 
11:49:15:6130 Rx 1 0x210 s 7 FF FF 30 68 90 00 BD 
11:49:15:6130 Rx 1 0x4B0 s 8 27 10 27 10 27 10 27 10 
11:49:15:6180 Rx 1 0x251 s 8 40 00 00 00 00 00 00 00 
11:49:15:6270 Rx 1 0x210 s 7 FF FF 30 68 90 00 BE 
11:49:15:6270 Rx 1 0x4B0 s 8 27 10 27 10 27 10 27 10 
11:49:15:6280 Rx 1 0x265 s 8 FF FF 00 00 00 00 00 00 
11:49:15:6310 Rx 1 0x495 s 2 7F 00 
11:49:15:6380 Rx 1 0x460 s 8 03 E0 00 00 C0 00 00 00 
11:49:15:6380 Rx 1 0x310 s 3 02 00 00 
11:49:15:6410 Rx 1 0x250 s 8 08 00 40 00 00 00 00 00 
11:49:15:6410 Rx 1 0x210 s 7 FF FF 30 68 90 00 BF 
11:49:15:6410 Rx 1 0x440 s 8 12 70 09 05 40 00 00 00 
11:49:15:6420 Rx 1 0x4B0 s 8 27 10 27 10 27 10 27 10 
11:49:15:6420 Rx 1 0x441 s 8 00 00 00 00 00 00 00 00 
11:49:15:6420 Rx 1 0x442 s 8 00 00 00 00 00 00 00 00 
11:49:15:6430 Rx 1 0x443 s 8 00 00 00 00 00 00 00 00 
11:49:15:6430 Rx 1 0x444 s 8 31 20 00 00 00 00 00 00 
11:49:15:6550 Rx 1 0x210 s 7 FF FF 30 68 90 00 C0 
11:49:15:6550 Rx 1 0x4B0 s 8 27 10 27 10 27 10 27 10 
11:49:15:6580 Rx 1 0x359 s 8 02 00 00 86 00 00 00 00 
11:49:15:6650 Rx 1 0x045 s 8 40 00 92 00 00 00 00 00 
11:49:15:6690 Rx 1 0x210 s 7 FF FF 30 68 90 00 C1 
11:49:15:6690 Rx 1 0x4B0 s 8 27 10 27 10 27 10 27 10 
11:49:15:6830 Rx 1 0x610 s 8 06 90 05 68 19 16 00 00 
11:49:15:6830 Rx 1 0x210 s 7 FF FF 30 68 90 00 C2 
11:49:15:6830 Rx 1 0x4B0 s 8 27 10 27 10 27 10 27 10 
11:49:15:6840 Rx 1 0x611 s 8 06 82 01 28 F9 FA FA FA 
11:49:15:6950 Rx 1 0x409 s 8 18 00 00 00 80 00 00 00 
11:49:15:6970 Rx 1 0x210 s 7 FF FF 30 68 90 00 C3 
11:49:15:6970 Rx 1 0x4B0 s 8 27 10 27 10 27 10 27 10 
11:49:15:7110 Rx 1 0x210 s 7 FF FF 30 68 90 00 C4 
11:49:15:7110 Rx 1 0x4B0 s 8 27 10 27 10 27 10 27 10 
11:49:15:7180 Rx 1 0x251 s 8 40 00 00 00 00 00 00 00 
11:49:15:7250 Rx 1 0x210 s 7 FF FF 30 68 90 00 C5 
11:49:15:7250 Rx 1 0x4B0 s 8 27 10 27 10 27 10 27 10 
11:49:15:7280 Rx 1 0x264 s 8 00 00 51 00 01 01 20 00 
11:49:15:7310 Rx 1 0x495 s 2 7F 00 
11:49:15:7370 Rx 1 0x023 s 1 40 
11:49:15:7380 Rx 1 0x460 s 8 03 E0 00 00 C0 00 00 00 
11:49:15:7380 Rx 1 0x265 s 8 FF FF 00 00 00 00 00 00 
11:49:15:7390 Rx 1 0x210 s 7 FF FF 30 68 90 00 C6 
11:49:15:7390 Rx 1 0x4B0 s 8 27 10 27 10 27 10 27 10 
11:49:15:7410 Rx 1 0x250 s 8 08 00 40 00 00 00 00 00 
11:49:15:7410 Rx 1 0x345 s 8 24 44 40 00 00 00 00 00 
11:49:15:7410 Rx 1 0x344 s 4 FF FF FF FF 
11:49:15:7420 Rx 1 0x3A0 s 8 00 00 03 E8 00 00 00 00 
11:49:15:7420 Rx 1 0x3A1 s 8 80 18 00 00 31 00 EB 80 
11:49:15:7480 Rx 1 0x311 s 2 00 00 
11:49:15:7530 Rx 1 0x210 s 7 FF FF 30 68 90 00 C7 
11:49:15:7530 Rx 1 0x4B0 s 8 27 10 27 10 27 10 27 10 
11:49:15:7650 Rx 1 0x045 s 8 40 00 92 00 00 00 00 00 
11:49:15:7670 Rx 1 0x210 s 7 FF FF 30 68 90 00 C8 
11:49:15:7670 Rx 1 0x4B0 s 8 27 10 27 10 27 10 27 10 
11:49:15:7810 Rx 1 0x210 s 7 FF FF 30 68 90 00 C9 
11:49:15:7810 Rx 1 0x4B0 s 8 27 10 27 10 27 10 27 10 
11:49:15:7950 Rx 1 0x210 s 7 FF FF 30 68 90 00 CA 
11:49:15:7950 Rx 1 0x4B0 s 8 27 10 27 10 27 10 27 10 
11:49:15:8070 Rx 1 0x045 s 8 40 00 92 00 00 00 00 00 
11:49:15:8080 Rx 1 0x301 s 8 00 01 0F 5F 00 00 00 E6 
11:49:15:8080 Rx 1 0x302 s 8 00 00 00 00 09 54 08 A2 
11:49:15:8080 Rx 1 0x304 s 8 00 00 00 00 00 FA 00 D2 
11:49:15:8090 Rx 1 0x305 s 8 00 00 01 40 00 00 00 80 
11:49:15:8090 Rx 1 0x303 s 8 0F 59 00 14 06 00 00 00 
11:49:15:8090 Rx 1 0x210 s 7 FF FF 30 68 90 00 CB 
11:49:15:8090 Rx 1 0x4B0 s 8 27 10 27 10 27 10 27 10 
11:49:15:8180 Rx 1 0x251 s 8 40 00 00 00 00 00 00 00 
11:49:15:8230 Rx 1 0x210 s 7 FF FF 30 68 90 00 CC 
11:49:15:8230 Rx 1 0x4B0 s 8 27 10 27 10 27 10 27 10 
11:49:15:8280 Rx 1 0x263 s 6 00 00 31 80 05 00 
11:49:15:8310 Rx 1 0x495 s 2 7F 00 
11:49:15:8370 Rx 1 0x210 s 7 FF FF 30 68 90 00 CD 
11:49:15:8370 Rx 1 0x460 s 8 03 E0 00 00 C0 00 00 00 
11:49:15:8380 Rx 1 0x4B0 s 8 27 10 27 10 27 10 27 10 
11:49:15:8390 Rx 1 0x265 s 8 FF FF 00 00 00 00 00 00 
11:49:15:8410 Rx 1 0x250 s 8 08 00 40 00 00 00 00 00 
11:49:15:8410 Rx 1 0x440 s 8 12 70 09 05 40 00 00 00 
11:49:15:8420 Rx 1 0x441 s 8 00 00 00 00 00 00 00 00 
11:49:15:8420 Rx 1 0x442 s 8 00 00 00 00 00 00 00 00 
11:49:15:8420 Rx 1 0x443 s 8 00 00 00 00 00 00 00 00 
11:49:15:8430 Rx 1 0x444 s 8 31 20 00 00 00 00 00 00 
11:49:15:8480 Rx 1 0x310 s 3 02 00 00 
11:49:15:8510 Rx 1 0x210 s 7 FF FF 30 68 90 00 CE 
11:49:15:8510 Rx 1 0x4B0 s 8 27 10 27 10 27 10 27 10 
11:49:15:8650 Rx 1 0x210 s 7 FF FF 30 68 90 00 CF 
11:49:15:8650 Rx 1 0x4B0 s 8 27 10 27 10 27 10 27 10 
11:49:15:8690 Rx 1 0x359 s 8 02 00 00 86 00 00 00 00 
11:49:15:8790 Rx 1 0x210 s 7 FF FF 30 68 90 00 D0 
11:49:15:8790 Rx 1 0x4B0 s 8 27 10 27 10 27 10 27 10 
11:49:15:8830 Rx 1 0x610 s 8 06 90 05 C2 19 15 00 00 
11:49:15:8830 Rx 1 0x611 s 8 06 84 00 CE F9 FA FA FA 
11:49:15:8930 Rx 1 0x210 s 7 FF FF 30 68 90 00 D1 
11:49:15:8930 Rx 1 0x4B0 s 8 27 10 27 10 27 10 27 10 
11:49:15:9050 Rx 1 0x045 s 8 40 00 92 00 00 00 00 00 
11:49:15:9070 Rx 1 0x210 s 7 FF FF 30 68 90 00 D2 
11:49:15:9070 Rx 1 0x4B0 s 8 27 10 27 10 27 10 27 10 
11:49:15:9190 Rx 1 0x251 s 8 40 00 00 00 00 00 00 00 
11:49:15:9210 Rx 1 0x210 s 7 FF FF 30 68 90 00 D3 
11:49:15:9210 Rx 1 0x4B0 s 8 27 10 27 10 27 10 27 10 
11:49:15:9280 Rx 1 0x264 s 8 00 00 51 00 01 01 20 00 
11:49:15:9310 Rx 1 0x495 s 2 7F 00 
11:49:15:9350 Rx 1 0x210 s 7 FF FF 30 68 90 00 D4 
11:49:15:9350 Rx 1 0x4B0 s 8 27 10 27 10 27 10 27 10 
11:49:15:9370 Rx 1 0x023 s 1 40 
11:49:15:9370 Rx 1 0x460 s 8 03 E0 00 00 C0 00 00 00 
11:49:15:9380 Rx 1 0x265 s 8 FF FF 00 00 00 00 00 00 
11:49:15:9410 Rx 1 0x250 s 8 08 00 40 00 00 00 00 00 
11:49:15:9420 Rx 1 0x345 s 8 24 44 40 00 00 00 00 00 
11:49:15:9430 Rx 1 0x344 s 4 FF FF FF FF 
11:49:15:9480 Rx 1 0x311 s 2 00 00 
11:49:15:9490 Rx 1 0x210 s 7 FF FF 30 68 90 00 D5 
11:49:15:9490 Rx 1 0x4B0 s 8 27 10 27 10 27 10 27 10 
11:49:15:9630 Rx 1 0x210 s 7 FF FF 30 68 90 00 D6 
11:49:15:9630 Rx 1 0x4B0 s 8 27 10 27 10 27 10 27 10 
11:49:15:9650 Rx 1 0x408 s 8 0F 02 84 30 80 1C 80 06 
11:49:15:9650 Rx 1 0x40B s 8 00 00 06 00 01 00 60 00 
11:49:15:9770 Rx 1 0x210 s 7 FF FF 30 68 90 00 D7 
11:49:15:9770 Rx 1 0x4B0 s 8 27 10 27 10 27 10 27 10 
11:49:15:9910 Rx 1 0x210 s 7 FF FF 30 68 90 00 D8 
11:49:15:9910 Rx 1 0x4B0 s 8 27 10 27 10 27 10 27 10 
11:49:16:0050 Rx 1 0x045 s 8 40 00 92 00 00 00 00 00 
11:49:16:0050 Rx 1 0x210 s 7 FF FF 30 68 90 00 D9 
11:49:16:0050 Rx 1 0x4B0 s 8 27 10 27 10 27 10 27 10 
11:49:16:0080 Rx 1 0x301 s 8 00 01 0F 60 00 00 00 E6 
11:49:16:0080 Rx 1 0x302 s 8 00 00 00 00 09 54 08 A2 
11:49:16:0080 Rx 1 0x304 s 8 00 00 00 00 00 FA 00 D2 
11:49:16:0090 Rx 1 0x305 s 8 00 00 01 40 00 00 00 80 
11:49:16:0090 Rx 1 0x303 s 8 0F 59 00 14 06 00 00 00 
11:49:16:0190 Rx 1 0x251 s 8 40 00 00 00 00 00 00 00 
11:49:16:0190 Rx 1 0x210 s 7 FF FF 30 68 90 00 DA 
11:49:16:0190 Rx 1 0x4B0 s 8 27 10 27 10 27 10 27 10 
11:49:16:0290 Rx 1 0x265 s 8 FF FF 00 00 00 00 00 00 
11:49:16:0310 Rx 1 0x495 s 2 7F 00 
11:49:16:0330 Rx 1 0x210 s 7 FF FF 30 68 90 00 DB 
11:49:16:0330 Rx 1 0x4B0 s 8 27 10 27 10 27 10 27 10 
11:49:16:0370 Rx 1 0x460 s 8 03 E0 00 00 00 00 00 00 
11:49:16:0380 Rx 1 0x310 s 3 02 00 00 
11:49:16:0420 Rx 1 0x250 s 8 08 00 40 00 00 00 00 00 
11:49:16:0420 Rx 1 0x440 s 8 12 70 09 05 40 00 00 00 
11:49:16:0420 Rx 1 0x441 s 8 00 00 00 00 00 00 00 00 
11:49:16:0430 Rx 1 0x442 s 8 00 00 00 00 00 00 00 00 
11:49:16:0430 Rx 1 0x443 s 8 00 00 00 00 00 00 00 00 
11:49:16:0430 Rx 1 0x444 s 8 31 20 00 00 00 00 00 00 
11:49:16:0470 Rx 1 0x210 s 7 FF FF 30 68 90 00 DC 
11:49:16:0470 Rx 1 0x4B0 s 8 27 10 27 10 27 10 27 10 
11:49:16:0590 Rx 1 0x359 s 8 02 00 00 86 00 00 00 00 
11:49:16:0610 Rx 1 0x210 s 7 FF FF 30 68 90 00 DD 
11:49:16:0610 Rx 1 0x4B0 s 8 27 10 27 10 27 10 27 10 
11:49:16:0750 Rx 1 0x210 s 7 FF FF 30 68 90 00 DE 
11:49:16:0750 Rx 1 0x4B0 s 8 27 10 27 10 27 10 27 10 
11:49:16:0830 Rx 1 0x610 s 8 06 90 05 F0 19 15 00 00 
11:49:16:0830 Rx 1 0x611 s 8 06 87 00 A0 F9 FA FA FA 
11:49:16:0890 Rx 1 0x210 s 7 FF FF 30 68 90 00 DF 
11:49:16:0890 Rx 1 0x4B0 s 8 27 10 27 10 27 10 27 10 
11:49:16:1030 Rx 1 0x210 s 7 FF FF 30 68 90 00 E0 
11:49:16:1030 Rx 1 0x4B0 s 8 27 10 27 10 27 10 27 10 
11:49:16:1050 Rx 1 0x045 s 8 40 00 92 00 00 00 00 00 
11:49:16:1170 Rx 1 0x210 s 7 FF FF 30 20 90 00 E1 
11:49:16:1170 Rx 1 0x4B0 s 8 27 10 27 10 27 10 27 10 
11:49:16:1190 Rx 1 0x251 s 8 40 00 00 00 00 00 00 00 
11:49:16:1290 Rx 1 0x264 s 8 00 00 51 00 01 01 20 00 
11:49:16:1310 Rx 1 0x210 s 7 FF FF 30 20 90 00 E2 
11:49:16:1310 Rx 1 0x4B0 s 8 27 10 27 10 27 10 27 10 
11:49:16:1320 Rx 1 0x495 s 2 7F 00 
11:49:16:1360 Rx 1 0x023 s 1 40 
11:49:16:1370 Rx 1 0x460 s 8 03 E0 00 00 00 00 00 00 
11:49:16:1390 Rx 1 0x265 s 8 FF FF 00 00 00 00 00 00 
11:49:16:1410 Rx 1 0x345 s 8 24 44 40 00 00 00 00 00 
11:49:16:1410 Rx 1 0x344 s 4 FF FF FF FF 
11:49:16:1420 Rx 1 0x250 s 8 08 00 40 00 00 00 00 00 
11:49:16:1450 Rx 1 0x210 s 7 FF FF 30 20 90 00 E3 
11:49:16:1450 Rx 1 0x4B0 s 8 27 10 27 10 27 10 27 10 
11:49:16:1480 Rx 1 0x311 s 2 00 00 
11:49:16:1590 Rx 1 0x210 s 7 FF FF 30 20 90 00 E4 
11:49:16:1590 Rx 1 0x4B0 s 8 27 10 27 10 27 10 27 10 
11:49:16:1730 Rx 1 0x210 s 7 FF FF 30 20 90 00 E5 
11:49:16:1730 Rx 1 0x4B0 s 8 27 10 27 10 27 10 27 10 
11:49:16:1870 Rx 1 0x210 s 7 FF FF 30 20 90 00 E6 
11:49:16:1870 Rx 1 0x4B0 s 8 27 10 27 10 27 10 27 10 
11:49:16:1950 Rx 1 0x409 s 8 18 00 00 00 00 00 00 00 
11:49:16:2010 Rx 1 0x210 s 7 FF FF 30 20 90 00 E7 
11:49:16:2020 Rx 1 0x4B0 s 8 27 10 27 10 27 10 27 10 
11:49:16:2050 Rx 1 0x045 s 8 40 00 92 00 00 00 00 00 
11:49:16:2070 Rx 1 0x045 s 8 40 00 92 00 00 00 00 00 
11:49:16:2080 Rx 1 0x301 s 8 00 01 0F 5F 00 00 00 E6 
11:49:16:2080 Rx 1 0x302 s 8 00 00 00 00 09 54 08 A2 
11:49:16:2080 Rx 1 0x304 s 8 00 00 00 00 00 FA 00 D2 
11:49:16:2090 Rx 1 0x305 s 8 00 00 01 40 00 00 00 80 
11:49:16:2090 Rx 1 0x303 s 8 0F 59 00 14 06 00 00 00 
11:49:16:2150 Rx 1 0x210 s 7 FF FF 30 20 90 00 E8 
11:49:16:2160 Rx 1 0x4B0 s 8 27 10 27 10 27 10 27 10 
11:49:16:2190 Rx 1 0x251 s 8 40 00 00 00 00 00 00 00 
11:49:16:2290 Rx 1 0x265 s 8 FF FF 00 00 00 00 00 00 
11:49:16:2290 Rx 1 0x210 s 7 FF FF 30 20 90 00 E9 
11:49:16:2290 Rx 1 0x4B0 s 8 27 10 27 10 27 10 27 10 
11:49:16:2310 Rx 1 0x495 s 2 7F 00 
11:49:16:2360 Rx 1 0x460 s 8 03 E0 00 00 00 00 00 00 
11:49:16:2390 Rx 1 0x310 s 3 02 00 00 
11:49:16:2420 Rx 1 0x250 s 8 08 00 40 00 00 00 00 00 
11:49:16:2420 Rx 1 0x440 s 8 12 70 09 05 40 00 00 00 
11:49:16:2430 Rx 1 0x441 s 8 00 00 00 00 00 00 00 00 
11:49:16:2430 Rx 1 0x442 s 8 00 00 00 00 00 00 00 00 
11:49:16:2430 Rx 1 0x443 s 8 00 00 00 00 00 00 00 00 
11:49:16:2430 Rx 1 0x210 s 7 FF FF 30 20 90 00 EA 
11:49:16:2440 Rx 1 0x444 s 8 31 20 00 00 00 00 00 00 
11:49:16:2440 Rx 1 0x4B0 s 8 27 10 27 10 27 10 27 10 
11:49:16:2440 Rx 1 0x3A0 s 8 00 00 03 E8 00 00 00 00 
11:49:16:2450 Rx 1 0x3A1 s 8 80 18 00 00 31 00 EB 80 
11:49:16:2570 Rx 1 0x210 s 7 FF FF 30 20 90 00 EB 
11:49:16:2580 Rx 1 0x4B0 s 8 27 10 27 10 27 10 27 10 
11:49:16:2590 Rx 1 0x359 s 8 02 00 00 86 00 00 00 00 
11:49:16:2710 Rx 1 0x210 s 7 FF FF 30 20 90 00 EC 
11:49:16:2720 Rx 1 0x4B0 s 8 27 10 27 10 27 10 27 10 
11:49:16:2830 Rx 1 0x610 s 8 06 90 06 21 19 15 00 00 
11:49:16:2830 Rx 1 0x300 s 8 02 04 27 00 00 3F 01 00 
11:49:16:2830 Rx 1 0x306 s 8 00 00 00 00 00 00 00 00 
11:49:16:2840 Rx 1 0x611 s 8 06 88 00 6F F9 FA FA FA 
11:49:16:2840 Rx 1 0x722 s 8 00 00 00 00 00 00 00 00 
11:49:16:2840 Rx 1 0x723 s 8 00 80 00 01 A0 14 24 00 
11:49:16:2840 Rx 1 0x721 s 8 00 00 00 00 00 00 00 00 
11:49:16:2850 Rx 1 0x210 s 7 FF FF 30 20 90 00 ED 
11:49:16:2860 Rx 1 0x4B0 s 8 27 10 27 10 27 10 27 10 
11:49:16:2990 Rx 1 0x210 s 7 FF FF 30 20 90 00 EE 
11:49:16:3000 Rx 1 0x4B0 s 8 27 10 27 10 27 10 27 10 
11:49:16:3040 Rx 1 0x045 s 8 40 00 92 00 00 00 00 00 
11:49:16:3130 Rx 1 0x210 s 7 FF FF 30 20 90 00 EF 
11:49:16:3140 Rx 1 0x4B0 s 8 27 10 27 10 27 10 27 10 
11:49:16:3190 Rx 1 0x251 s 8 40 00 00 00 00 00 00 00 
11:49:16:3270 Rx 1 0x210 s 7 FF FF 30 20 90 00 F0 
11:49:16:3280 Rx 1 0x4B0 s 8 27 10 27 10 27 10 27 10 
11:49:16:3290 Rx 1 0x263 s 6 00 00 31 80 06 00 
11:49:16:3310 Rx 1 0x495 s 2 7F 00 
11:49:16:3360 Rx 1 0x023 s 1 40 
11:49:16:3360 Rx 1 0x460 s 8 03 E0 00 00 00 00 00 00 
11:49:16:3390 Rx 1 0x264 s 8 00 00 01 00 01 01 20 00 
11:49:16:3410 Rx 1 0x345 s 8 24 44 40 00 00 00 00 00 
11:49:16:3410 Rx 1 0x210 s 7 FF FF 30 20 90 00 F1 
11:49:16:3420 Rx 1 0x344 s 4 FF FF FF FF 
11:49:16:3420 Rx 1 0x250 s 8 08 00 40 00 00 00 00 00 
11:49:16:3420 Rx 1 0x4B0 s 8 27 10 27 10 27 10 27 10 
11:49:16:3490 Rx 1 0x265 s 8 FF FF 00 00 00 00 00 00 
11:49:16:3550 Rx 1 0x210 s 7 FF FF 30 20 90 00 F2 
11:49:16:3560 Rx 1 0x4B0 s 8 27 10 27 10 27 10 27 10 
11:49:16:3590 Rx 1 0x311 s 2 00 00 
11:49:16:3690 Rx 1 0x210 s 7 FF FF 30 20 90 00 F3 
11:49:16:3700 Rx 1 0x4B0 s 8 27 10 27 10 27 10 27 10 
11:49:16:3830 Rx 1 0x210 s 7 FF FF 30 20 90 00 F4 
11:49:16:3840 Rx 1 0x4B0 s 8 27 10 27 10 27 10 27 10 
11:49:16:3970 Rx 1 0x210 s 7 FF FF 30 20 90 00 F5 
11:49:16:3980 Rx 1 0x4B0 s 8 27 10 27 10 27 10 27 10 
11:49:16:4040 Rx 1 0x045 s 8 40 00 92 00 00 00 00 00 
11:49:16:4080 Rx 1 0x301 s 8 00 01 0F 60 00 00 00 E6 
11:49:16:4080 Rx 1 0x302 s 8 00 00 00 00 09 54 08 A2 
11:49:16:4080 Rx 1 0x304 s 8 00 00 00 00 00 FA 00 D2 
11:49:16:4090 Rx 1 0x305 s 8 00 00 01 40 00 00 00 80 
11:49:16:4090 Rx 1 0x303 s 8 0F 59 00 14 06 00 00 00 
11:49:16:4110 Rx 1 0x210 s 7 FF FF 30 20 90 00 F6 
11:49:16:4120 Rx 1 0x4B0 s 8 27 10 27 10 27 10 27 10 
11:49:16:4190 Rx 1 0x251 s 8 40 00 00 00 00 00 00 00 
11:49:16:4250 Rx 1 0x210 s 7 FF FF 30 20 90 00 F7 
11:49:16:4260 Rx 1 0x4B0 s 8 27 10 27 10 27 10 27 10 
11:49:16:4290 Rx 1 0x265 s 8 FF FF 00 00 00 00 00 00 
11:49:16:4310 Rx 1 0x495 s 2 7F 00 
11:49:16:4360 Rx 1 0x460 s 8 03 E0 00 00 00 00 00 00 
11:49:16:4390 Rx 1 0x310 s 3 02 00 00 
11:49:16:4390 Rx 1 0x210 s 7 FF FF 30 20 90 00 F8 
11:49:16:4400 Rx 1 0x4B0 s 8 27 10 27 10 27 10 27 10 
11:49:16:4420 Rx 1 0x250 s 8 08 00 40 00 00 00 00 00 
11:49:16:4420 Rx 1 0x440 s 8 12 70 09 05 40 00 00 00 
11:49:16:4430 Rx 1 0x441 s 8 00 00 00 00 00 00 00 00 
11:49:16:4430 Rx 1 0x442 s 8 00 00 00 00 00 00 00 00 
11:49:16:4430 Rx 1 0x443 s 8 00 00 00 00 00 00 00 00 
11:49:16:4440 Rx 1 0x444 s 8 31 20 00 00 00 00 00 00 
11:49:16:4530 Rx 1 0x210 s 7 FF FF 30 20 90 00 F9 
11:49:16:4540 Rx 1 0x4B0 s 8 27 10 27 10 27 10 27 10 
11:49:16:4590 Rx 1 0x359 s 8 02 00 00 86 00 00 00 00 
11:49:16:4640 Rx 1 0x408 s 8 0F 02 84 30 80 1C 80 06 
11:49:16:4650 Rx 1 0x40B s 8 00 00 06 00 01 00 60 00 
11:49:16:4670 Rx 1 0x210 s 7 FF FF 30 20 90 00 FA 
11:49:16:4680 Rx 1 0x4B0 s 8 27 10 27 10 27 10 27 10 
11:49:16:4810 Rx 1 0x210 s 7 FF FF 30 20 90 00 FB 
11:49:16:4820 Rx 1 0x4B0 s 8 27 10 27 10 27 10 27 10 
11:49:16:4830 Rx 1 0x610 s 8 06 90 06 42 19 15 00 00 
11:49:16:4830 Rx 1 0x611 s 8 06 89 00 4E F9 FA F9 F9 
11:49:16:4950 Rx 1 0x210 s 7 FF FF 30 20 90 00 FC 
11:49:16:4960 Rx 1 0x4B0 s 8 27 10 27 10 27 10 27 10 
11:49:16:5040 Rx 1 0x045 s 8 40 00 92 00 00 00 00 00 
11:49:16:5090 Rx 1 0x210 s 7 FF FF 30 20 90 00 FD 
11:49:16:5100 Rx 1 0x4B0 s 8 27 10 27 10 27 10 27 10 
11:49:16:5190 Rx 1 0x251 s 8 40 00 00 00 00 00 00 00 
11:49:16:5230 Rx 1 0x210 s 7 FF FF 30 20 90 00 FE 
11:49:16:5240 Rx 1 0x4B0 s 8 27 10 27 10 27 10 27 10 
11:49:16:5290 Rx 1 0x264 s 8 00 00 01 00 01 01 20 00 
11:49:16:5310 Rx 1 0x495 s 2 7F 00 
11:49:16:5360 Rx 1 0x023 s 1 40 
11:49:16:5360 Rx 1 0x460 s 8 03 E0 00 00 00 00 00 00 
11:49:16:5370 Rx 1 0x210 s 7 FF FF 30 20 90 00 FF 
11:49:16:5380 Rx 1 0x4B0 s 8 27 10 27 10 27 10 27 10 
11:49:16:5390 Rx 1 0x265 s 8 FF FF 00 00 00 00 00 00 
11:49:16:5410 Rx 1 0x345 s 8 24 44 40 00 00 00 00 00 
11:49:16:5410 Rx 1 0x344 s 4 FF FF FF FF 
11:49:16:5420 Rx 1 0x250 s 8 08 00 40 00 00 00 00 00 
11:49:16:5490 Rx 1 0x311 s 2 00 00 
11:49:16:5510 Rx 1 0x210 s 7 FF FF 30 20 90 00 00 
11:49:16:5520 Rx 1 0x4B0 s 8 27 10 27 10 27 10 27 10 
11:49:16:5650 Rx 1 0x210 s 7 FF FF 30 20 90 00 01 
11:49:16:5660 Rx 1 0x4B0 s 8 27 10 27 10 27 10 27 10 
11:49:16:5790 Rx 1 0x210 s 7 FF FF 30 20 90 00 02 
11:49:16:5800 Rx 1 0x4B0 s 8 27 10 27 10 27 10 27 10 
11:49:16:5930 Rx 1 0x210 s 7 FF FF 30 20 90 00 03 
11:49:16:5940 Rx 1 0x4B0 s 8 27 10 27 10 27 10 27 10 
11:49:16:6040 Rx 1 0x045 s 8 40 00 92 00 00 00 00 00 
11:49:16:6060 Rx 1 0x045 s 8 40 00 92 00 00 00 00 00 
11:49:16:6070 Rx 1 0x210 s 7 FF FF 30 20 90 00 04 
11:49:16:6080 Rx 1 0x4B0 s 8 27 10 27 10 27 10 27 10 
11:49:16:6080 Rx 1 0x301 s 8 00 01 0F 60 00 00 00 E6 
11:49:16:6080 Rx 1 0x302 s 8 00 00 00 00 09 54 08 A2 
11:49:16:6090 Rx 1 0x304 s 8 00 00 00 00 00 FA 00 D2 
11:49:16:6090 Rx 1 0x305 s 8 00 00 01 40 00 00 00 80 
11:49:16:6090 Rx 1 0x303 s 8 0F 59 00 14 06 00 00 00 
11:49:16:6190 Rx 1 0x251 s 8 40 00 00 00 00 00 00 00 
11:49:16:6210 Rx 1 0x210 s 7 FF FF 30 20 90 00 05 
11:49:16:6220 Rx 1 0x4B0 s 8 27 10 27 10 27 10 27 10 
11:49:16:6290 Rx 1 0x265 s 8 FF FF 00 00 00 00 00 00 
11:49:16:6310 Rx 1 0x495 s 2 7F 00 
11:49:16:6350 Rx 1 0x210 s 7 FF FF 30 20 90 00 06 
11:49:16:6360 Rx 1 0x460 s 8 03 E0 00 00 00 00 00 00 
11:49:16:6360 Rx 1 0x4B0 s 8 27 10 27 10 27 10 27 10 
11:49:16:6390 Rx 1 0x310 s 3 02 00 00 
11:49:16:6420 Rx 1 0x250 s 8 08 00 40 00 00 00 00 00 
11:49:16:6430 Rx 1 0x440 s 8 12 70 09 05 40 00 00 00 
11:49:16:6430 Rx 1 0x441 s 8 00 00 00 00 00 00 00 00 
11:49:16:6430 Rx 1 0x442 s 8 00 00 00 00 00 00 00 00 
11:49:16:6440 Rx 1 0x443 s 8 00 00 00 00 00 00 00 00 
11:49:16:6440 Rx 1 0x444 s 8 31 20 00 00 00 00 00 00 
11:49:16:6500 Rx 1 0x210 s 7 FF FF 30 20 90 00 07 
11:49:16:6500 Rx 1 0x4B0 s 8 27 10 27 10 27 10 27 10 
11:49:16:6590 Rx 1 0x359 s 8 02 00 00 86 00 00 00 00 
11:49:16:6640 Rx 1 0x210 s 7 FF FF 30 20 90 00 08 
11:49:16:6640 Rx 1 0x4B0 s 8 27 10 27 10 27 10 27 10 
11:49:16:6780 Rx 1 0x210 s 7 FF FF 30 20 90 00 09 
11:49:16:6780 Rx 1 0x4B0 s 8 27 10 27 10 27 10 27 10 
11:49:16:6830 Rx 1 0x610 s 8 06 90 06 53 19 15 00 00 
11:49:16:6830 Rx 1 0x611 s 8 06 8A 00 3D F9 FA F9 F9 
11:49:16:6920 Rx 1 0x210 s 7 FF FF 30 20 90 00 0A 
11:49:16:6920 Rx 1 0x4B0 s 8 27 10 27 10 27 10 27 10 
11:49:16:6940 Rx 1 0x409 s 8 18 00 00 00 00 00 00 00 
11:49:16:7040 Rx 1 0x045 s 8 40 00 92 00 00 00 00 00 
11:49:16:7060 Rx 1 0x210 s 7 FF FF 30 20 90 00 0B 
11:49:16:7060 Rx 1 0x4B0 s 8 27 10 27 10 27 10 27 10 
11:49:16:7190 Rx 1 0x251 s 8 40 00 00 00 00 00 00 00 
11:49:16:7200 Rx 1 0x210 s 7 FF FF 30 20 90 00 0C 
11:49:16:7200 Rx 1 0x4B0 s 8 27 10 27 10 27 10 27 10 
11:49:16:7290 Rx 1 0x264 s 8 00 00 01 00 01 01 20 00 
11:49:16:7310 Rx 1 0x495 s 2 7F 00 
11:49:16:7340 Rx 1 0x210 s 7 FF FF 30 20 90 00 0D 
11:49:16:7340 Rx 1 0x4B0 s 8 27 10 27 10 27 10 27 10 
11:49:16:7350 Rx 1 0x023 s 1 40 
11:49:16:7360 Rx 1 0x460 s 8 03 E0 00 00 00 00 00 00 
11:49:16:7390 Rx 1 0x265 s 8 FF FF 00 00 00 00 00 00 
11:49:16:7410 Rx 1 0x345 s 8 24 44 40 00 00 00 00 00 
11:49:16:7410 Rx 1 0x344 s 4 FF FF FF FF 
11:49:16:7430 Rx 1 0x250 s 8 08 00 40 00 00 00 00 00 
11:49:16:7430 Rx 1 0x3A0 s 8 00 00 03 E8 00 00 00 00 
11:49:16:7440 Rx 1 0x3A1 s 8 80 18 00 00 31 00 EB 80 
11:49:16:7480 Rx 1 0x210 s 7 FF FF 30 20 90 00 0E 
11:49:16:7480 Rx 1 0x4B0 s 8 27 10 27 10 27 10 27 10 
11:49:16:7490 Rx 1 0x311 s 2 00 00 
11:49:16:7620 Rx 1 0x210 s 7 FF FF 30 20 90 00 0F 
11:49:16:7620 Rx 1 0x4B0 s 8 27 10 27 10 27 10 27 10 
11:49:16:7760 Rx 1 0x210 s 7 FF FF 30 20 90 00 10 
11:49:16:7760 Rx 1 0x4B0 s 8 27 10 27 10 27 10 27 10 
11:49:16:7900 Rx 1 0x210 s 7 FF FF 30 20 90 00 11 
11:49:16:7900 Rx 1 0x4B0 s 8 27 10 27 10 27 10 27 10 
11:49:16:8040 Rx 1 0x210 s 7 FF FF 30 20 90 00 12 
11:49:16:8040 Rx 1 0x4B0 s 8 27 10 27 10 27 10 27 10 
11:49:16:8040 Rx 1 0x045 s 8 40 00 92 00 00 00 00 00 
11:49:16:8080 Rx 1 0x301 s 8 00 01 0F 60 00 00 00 E6 
11:49:16:8080 Rx 1 0x302 s 8 00 00 00 00 09 54 08 A2 
11:49:16:8090 Rx 1 0x304 s 8 00 00 00 00 00 FA 00 D2 
11:49:16:8090 Rx 1 0x305 s 8 00 00 01 40 00 00 00 80 
11:49:16:8090 Rx 1 0x303 s 8 0F 59 00 14 06 00 00 00 
11:49:16:8180 Rx 1 0x210 s 7 FF FF 30 20 90 00 13 
11:49:16:8180 Rx 1 0x4B0 s 8 27 10 27 10 27 10 27 10 
11:49:16:8190 Rx 1 0x251 s 8 40 00 00 00 00 00 00 00 
11:49:16:8290 Rx 1 0x263 s 6 00 00 31 80 07 00 
11:49:16:8310 Rx 1 0x495 s 2 7F 00 
11:49:16:8320 Rx 1 0x210 s 7 FF FF 30 20 90 00 14 
11:49:16:8320 Rx 1 0x4B0 s 8 27 10 27 10 27 10 27 10 
11:49:16:8350 Rx 1 0x460 s 8 03 E0 00 00 00 00 00 00 
11:49:16:8390 Rx 1 0x265 s 8 FF FF 00 00 00 00 00 00 
11:49:16:8430 Rx 1 0x250 s 8 08 00 40 00 00 00 00 00 
11:49:16:8430 Rx 1 0x440 s 8 12 70 09 05 40 00 00 00 
11:49:16:8430 Rx 1 0x441 s 8 00 00 00 00 00 00 00 00 
11:49:16:8440 Rx 1 0x442 s 8 00 00 00 00 00 00 00 00 
11:49:16:8440 Rx 1 0x443 s 8 00 00 00 00 00 00 00 00 
11:49:16:8450 Rx 1 0x444 s 8 31 20 00 00 00 00 00 00 
11:49:16:8460 Rx 1 0x210 s 7 FF FF 30 20 90 00 15 
11:49:16:8460 Rx 1 0x4B0 s 8 27 10 27 10 27 10 27 10 
11:49:16:8490 Rx 1 0x310 s 3 02 00 00 
11:49:16:8600 Rx 1 0x210 s 7 FF FF 30 20 90 00 16 
11:49:16:8600 Rx 1 0x4B0 s 8 27 10 27 10 27 10 27 10 
11:49:16:8690 Rx 1 0x359 s 8 02 00 00 86 00 00 00 00 
11:49:16:8740 Rx 1 0x210 s 7 FF FF 30 20 90 00 17 
11:49:16:8740 Rx 1 0x4B0 s 8 27 10 27 10 27 10 27 10 
11:49:16:8830 Rx 1 0x610 s 8 06 90 06 65 19 15 00 00 
11:49:16:8830 Rx 1 0x611 s 8 06 8B 00 2B F9 FA F9 F9 
11:49:16:8880 Rx 1 0x210 s 7 FF FF 30 20 90 00 18 
11:49:16:8880 Rx 1 0x4B0 s 8 27 10 27 10 27 10 27 10 
11:49:16:9020 Rx 1 0x210 s 7 FF FF 30 20 90 00 19 
11:49:16:9020 Rx 1 0x4B0 s 8 27 10 27 10 27 10 27 10 
11:49:16:9040 Rx 1 0x045 s 8 40 00 92 00 00 00 00 00 
11:49:16:9160 Rx 1 0x210 s 7 FF FF 30 20 90 00 1A 
11:49:16:9160 Rx 1 0x4B0 s 8 27 10 27 10 27 10 27 10 
11:49:16:9190 Rx 1 0x251 s 8 40 00 00 00 00 00 00 00 
11:49:16:9290 Rx 1 0x264 s 8 00 00 01 00 01 01 20 00 
11:49:16:9300 Rx 1 0x210 s 7 FF FF 30 20 90 00 1B 
11:49:16:9300 Rx 1 0x4B0 s 8 27 10 27 10 27 10 27 10 
11:49:16:9310 Rx 1 0x495 s 2 7F 00 
11:49:16:9350 Rx 1 0x023 s 1 40 
11:49:16:9350 Rx 1 0x460 s 8 03 E0 00 00 00 00 00 00 
11:49:16:9390 Rx 1 0x265 s 8 FF FF 00 00 00 00 00 00 
11:49:16:9420 Rx 1 0x345 s 8 24 44 40 00 00 00 00 00 
11:49:16:9430 Rx 1 0x344 s 4 FF FF FF FF 
11:49:16:9430 Rx 1 0x250 s 8 08 00 40 00 00 00 00 00 
11:49:16:9440 Rx 1 0x210 s 7 FF FF 30 20 90 00 1C 
11:49:16:9440 Rx 1 0x4B0 s 8 27 10 27 10 27 10 27 10 
11:49:16:9490 Rx 1 0x311 s 2 00 00 
11:49:16:9580 Rx 1 0x210 s 7 FF FF 30 20 90 00 1D 
11:49:16:9580 Rx 1 0x4B0 s 8 27 10 27 10 27 10 27 10 
11:49:16:9640 Rx 1 0x408 s 8 0F 02 84 30 80 1C 80 06 
11:49:16:9650 Rx 1 0x40B s 8 00 00 06 00 01 00 60 00 
11:49:16:9720 Rx 1 0x210 s 7 FF FF 30 20 90 00 1E 
11:49:16:9720 Rx 1 0x4B0 s 8 27 10 27 10 27 10 27 10 
11:49:16:9860 Rx 1 0x210 s 7 FF FF 30 20 90 00 1F 
11:49:16:9860 Rx 1 0x4B0 s 8 27 10 27 10 27 10 27 10 
11:49:17:0000 Rx 1 0x210 s 7 FF FF 30 20 90 00 20 
11:49:17:0000 Rx 1 0x4B0 s 8 27 10 27 10 27 10 27 10 
11:49:17:0040 Rx 1 0x045 s 8 40 00 92 00 00 00 00 00 
11:49:17:0060 Rx 1 0x045 s 8 40 00 92 00 00 00 00 00 
11:49:17:0080 Rx 1 0x301 s 8 00 01 0F 5F 00 00 00 E6 
11:49:17:0080 Rx 1 0x302 s 8 00 00 00 00 09 54 08 A2 
11:49:17:0090 Rx 1 0x304 s 8 00 00 00 00 00 FA 00 D2 
11:49:17:0090 Rx 1 0x305 s 8 00 00 01 40 00 00 00 80 
11:49:17:0090 Rx 1 0x303 s 8 0F 59 00 14 06 00 00 00 
11:49:17:0140 Rx 1 0x210 s 7 FF FF 30 20 90 00 21 
11:49:17:0140 Rx 1 0x4B0 s 8 27 10 27 10 27 10 27 10 
11:49:17:0190 Rx 1 0x251 s 8 40 00 00 00 00 00 00 00 
11:49:17:0280 Rx 1 0x210 s 7 FF FF 30 20 90 00 22 
11:49:17:0280 Rx 1 0x4B0 s 8 27 10 27 10 27 10 27 10 
11:49:17:0290 Rx 1 0x265 s 8 FF FF 00 00 00 00 00 00 
11:49:17:0310 Rx 1 0x495 s 2 7F 00 
11:49:17:0350 Rx 1 0x460 s 8 03 E0 00 00 00 00 00 00 
11:49:17:0390 Rx 1 0x310 s 3 02 00 00 
11:49:17:0420 Rx 1 0x210 s 7 FF FF 30 20 90 00 23 
11:49:17:0420 Rx 1 0x4B0 s 8 27 10 27 10 27 10 27 10 
11:49:17:0430 Rx 1 0x250 s 8 08 00 40 00 00 00 00 00 
11:49:17:0430 Rx 1 0x440 s 8 12 70 09 05 40 00 00 00 
11:49:17:0430 Rx 1 0x441 s 8 00 00 00 00 00 00 00 00 
11:49:17:0440 Rx 1 0x442 s 8 00 00 00 00 00 00 00 00 
11:49:17:0440 Rx 1 0x443 s 8 00 00 00 00 00 00 00 00 
11:49:17:0450 Rx 1 0x444 s 8 31 20 00 00 00 00 00 00 
11:49:17:0560 Rx 1 0x210 s 7 FF FF 30 20 90 00 24 
11:49:17:0560 Rx 1 0x4B0 s 8 27 10 27 10 27 10 27 10 
11:49:17:0590 Rx 1 0x359 s 8 02 00 00 86 00 00 00 00 
11:49:17:0700 Rx 1 0x210 s 7 FF FF 30 20 90 00 25 
11:49:17:0700 Rx 1 0x4B0 s 8 27 10 27 10 27 10 27 10 
11:49:17:0830 Rx 1 0x610 s 8 06 90 06 72 19 15 00 00 
11:49:17:0830 Rx 1 0x611 s 8 06 8B 00 1E F9 FA F9 F9 
11:49:17:0840 Rx 1 0x210 s 7 FF FF 30 20 90 00 26 
11:49:17:0840 Rx 1 0x4B0 s 8 27 10 27 10 27 10 27 10 
11:49:17:0980 Rx 1 0x210 s 7 FF FF 30 20 90 00 27 
11:49:17:0980 Rx 1 0x4B0 s 8 27 10 27 10 27 10 27 10 
11:49:17:1040 Rx 1 0x045 s 8 40 00 92 00 00 00 00 00 
11:49:17:1120 Rx 1 0x210 s 7 FF FF 30 20 90 00 28 
11:49:17:1120 Rx 1 0x4B0 s 8 27 10 27 10 27 10 27 10 
11:49:17:1190 Rx 1 0x251 s 8 40 00 00 00 00 00 00 00 
11:49:17:1260 Rx 1 0x210 s 7 FF FF 30 20 90 00 29 
11:49:17:1260 Rx 1 0x4B0 s 8 27 10 27 10 27 10 27 10 
11:49:17:1290 Rx 1 0x264 s 8 00 00 01 00 01 01 20 00 
11:49:17:1310 Rx 1 0x495 s 2 7F 00 
11:49:17:1340 Rx 1 0x023 s 1 40 
11:49:17:1350 Rx 1 0x460 s 8 03 E0 00 00 00 00 00 00 
11:49:17:1390 Rx 1 0x265 s 8 FF FF 00 00 00 00 00 00 
11:49:17:1400 Rx 1 0x210 s 7 FF FF 30 20 90 00 2A 
11:49:17:1400 Rx 1 0x4B0 s 8 27 10 27 10 27 10 27 10 
11:49:17:1410 Rx 1 0x345 s 8 24 44 40 00 00 00 00 00 
11:49:17:1410 Rx 1 0x344 s 4 FF FF FF FF 
11:49:17:1430 Rx 1 0x250 s 8 08 00 40 00 00 00 00 00 
11:49:17:1490 Rx 1 0x311 s 2 00 00 
11:49:17:1540 Rx 1 0x210 s 7 FF FF 30 20 90 00 2B 
11:49:17:1540 Rx 1 0x4B0 s 8 27 10 27 10 27 10 27 10 
11:49:17:1680 Rx 1 0x210 s 7 FF FF 30 20 90 00 2C 
11:49:17:1680 Rx 1 0x4B0 s 8 27 10 27 10 27 10 27 10 
11:49:17:1820 Rx 1 0x210 s 7 FF FF 30 20 90 00 2D 
11:49:17:1820 Rx 1 0x4B0 s 8 27 10 27 10 27 10 27 10 
11:49:17:1940 Rx 1 0x409 s 8 18 00 00 00 00 00 00 00 
11:49:17:1960 Rx 1 0x210 s 7 FF FF 30 20 90 00 2E 
11:49:17:1960 Rx 1 0x4B0 s 8 27 10 27 10 27 10 27 10 
11:49:17:2040 Rx 1 0x045 s 8 40 00 92 00 00 00 00 00 
11:49:17:2080 Rx 1 0x301 s 8 00 00 0F 60 00 04 00 E6 
11:49:17:2080 Rx 1 0x302 s 8 00 00 00 00 09 54 08 A2 
11:49:17:2090 Rx 1 0x304 s 8 00 00 00 00 00 FA 00 D2 
11:49:17:2090 Rx 1 0x305 s 8 00 00 01 40 00 00 00 80 
11:49:17:2090 Rx 1 0x303 s 8 0F 59 00 14 06 00 00 00 
11:49:17:2100 Rx 1 0x210 s 7 FF FF 30 20 90 00 2F 
11:49:17:2100 Rx 1 0x4B0 s 8 27 10 27 10 27 10 27 10 
11:49:17:2190 Rx 1 0x251 s 8 40 00 00 00 00 00 00 00 
11:49:17:2240 Rx 1 0x210 s 7 FF FF 30 20 90 00 30 
11:49:17:2240 Rx 1 0x4B0 s 8 27 10 27 10 27 10 27 10 
11:49:17:2290 Rx 1 0x265 s 8 FF FF 00 00 00 04 00 00 
11:49:17:2310 Rx 1 0x495 s 2 7F 00 
11:49:17:2340 Rx 1 0x460 s 8 03 E0 00 00 00 00 00 00 
11:49:17:2380 Rx 1 0x210 s 7 FF FF 30 20 90 00 31 
11:49:17:2380 Rx 1 0x4B0 s 8 27 10 27 10 27 10 27 10 
11:49:17:2390 Rx 1 0x310 s 3 02 00 00 
11:49:17:2430 Rx 1 0x250 s 8 08 00 40 00 00 00 00 00 
11:49:17:2440 Rx 1 0x440 s 8 12 70 09 05 40 00 00 00 
11:49:17:2440 Rx 1 0x441 s 8 00 00 00 00 00 00 00 00 
11:49:17:2450 Rx 1 0x442 s 8 00 00 00 00 00 00 00 00 
11:49:17:2450 Rx 1 0x443 s 8 00 00 00 00 00 00 00 00 
11:49:17:2450 Rx 1 0x444 s 8 31 20 00 00 00 00 00 00 
11:49:17:2460 Rx 1 0x3A0 s 8 00 00 03 E4 00 00 00 00 
11:49:17:2460 Rx 1 0x3A1 s 8 80 18 00 00 31 00 EB 80 
11:49:17:2520 Rx 1 0x210 s 7 FF FF 30 20 90 00 32 
11:49:17:2520 Rx 1 0x4B0 s 8 27 10 27 10 27 10 27 10 
11:49:17:2590 Rx 1 0x359 s 8 02 00 00 86 00 00 00 00 
11:49:17:2660 Rx 1 0x210 s 7 FF FF 30 20 90 00 33 
11:49:17:2660 Rx 1 0x4B0 s 8 27 10 27 10 27 10 27 10 
11:49:17:2800 Rx 1 0x210 s 7 FF FF 30 20 90 00 34 
11:49:17:2800 Rx 1 0x4B0 s 8 27 10 27 10 27 10 27 10 
11:49:17:2830 Rx 1 0x610 s 8 06 90 06 77 19 15 00 00 
11:49:17:2830 Rx 1 0x300 s 8 02 04 27 00 00 3F 01 00 
11:49:17:2840 Rx 1 0x306 s 8 00 00 00 00 00 00 00 00 
11:49:17:2840 Rx 1 0x611 s 8 06 8B 00 19 F9 F9 F9 F9 
11:49:17:2840 Rx 1 0x722 s 8 00 00 00 00 00 00 00 00 
11:49:17:2840 Rx 1 0x723 s 8 00 80 00 01 A0 14 24 00 
11:49:17:2850 Rx 1 0x721 s 8 00 00 00 00 00 00 00 00 
11:49:17:2940 Rx 1 0x210 s 7 FF FF 30 20 90 00 35 
11:49:17:2940 Rx 1 0x4B0 s 8 27 10 27 10 27 10 27 10 
11:49:17:3040 Rx 1 0x045 s 8 40 00 92 00 00 00 00 00 
11:49:17:3080 Rx 1 0x210 s 7 FF FF 30 20 90 00 36 
11:49:17:3080 Rx 1 0x4B0 s 8 27 10 27 10 27 10 27 10 
11:49:17:3190 Rx 1 0x251 s 8 40 00 00 00 00 00 00 00 
11:49:17:3220 Rx 1 0x210 s 7 FF FF 30 20 90 00 37 
11:49:17:3220 Rx 1 0x4B0 s 8 27 10 27 10 27 10 27 10 
11:49:17:3290 Rx 1 0x263 s 6 00 00 31 80 08 00 
11:49:17:3310 Rx 1 0x495 s 2 7F 00 
11:49:17:3340 Rx 1 0x023 s 1 40 
11:49:17:3340 Rx 1 0x460 s 8 03 E0 00 00 00 00 00 00 
11:49:17:3360 Rx 1 0x210 s 7 FF FF 30 20 90 00 38 
11:49:17:3360 Rx 1 0x4B0 s 8 27 10 27 10 27 10 27 10 
11:49:17:3390 Rx 1 0x264 s 8 00 00 01 00 01 01 20 00 
11:49:17:3410 Rx 1 0x345 s 8 24 44 40 00 00 00 00 00 
11:49:17:3410 Rx 1 0x344 s 4 FF FF FF FF 
11:49:17:3430 Rx 1 0x250 s 8 08 00 40 00 00 00 00 00 
11:49:17:3490 Rx 1 0x265 s 8 FF FF 00 00 00 04 00 00 
11:49:17:3500 Rx 1 0x210 s 7 FF FF 30 20 90 00 39 
11:49:17:3500 Rx 1 0x4B0 s 8 27 10 27 10 27 10 27 10 
11:49:17:3590 Rx 1 0x311 s 2 00 00 
11:49:17:3640 Rx 1 0x210 s 7 FF FF 30 20 90 00 3A 
11:49:17:3640 Rx 1 0x4B0 s 8 27 10 27 10 27 10 27 10 
11:49:17:3780 Rx 1 0x210 s 7 FF FF 30 20 90 00 3B 
11:49:17:3780 Rx 1 0x4B0 s 8 27 10 27 10 27 10 27 10 
11:49:17:3920 Rx 1 0x210 s 7 FF FF 30 20 90 00 3C 
11:49:17:3920 Rx 1 0x4B0 s 8 27 10 27 10 27 10 27 10 
11:49:17:4030 Rx 1 0x045 s 8 40 00 92 00 00 00 00 00 
11:49:17:4060 Rx 1 0x045 s 8 40 00 92 00 00 00 00 00 
11:49:17:4060 Rx 1 0x210 s 7 FF FF 30 20 90 00 3D 
11:49:17:4060 Rx 1 0x4B0 s 8 27 10 27 10 27 10 27 10 
11:49:17:4080 Rx 1 0x301 s 8 00 01 0F 5F 00 04 00 E6 
11:49:17:4080 Rx 1 0x302 s 8 00 00 00 00 09 54 08 A2 
11:49:17:4090 Rx 1 0x304 s 8 00 00 00 00 00 FA 00 D2 
11:49:17:4090 Rx 1 0x305 s 8 00 00 01 40 00 00 00 80 
11:49:17:4090 Rx 1 0x303 s 8 0F 59 00 14 06 00 00 00 
11:49:17:4190 Rx 1 0x251 s 8 40 00 00 00 00 00 00 00 
11:49:17:4200 Rx 1 0x210 s 7 FF FF 30 20 90 00 3E 
11:49:17:4200 Rx 1 0x4B0 s 8 27 10 27 10 27 10 27 10 
11:49:17:4290 Rx 1 0x265 s 8 FF FF 00 00 00 04 00 00 
11:49:17:4310 Rx 1 0x495 s 2 7F 00 
11:49:17:4340 Rx 1 0x460 s 8 03 E0 00 00 00 00 00 00 
11:49:17:4340 Rx 1 0x210 s 7 FF FF 30 20 90 00 3F 
11:49:17:4340 Rx 1 0x4B0 s 8 27 10 27 10 27 10 27 10 
11:49:17:4390 Rx 1 0x310 s 3 02 00 00 
11:49:17:4430 Rx 1 0x250 s 8 08 00 40 00 00 00 00 00 
11:49:17:4440 Rx 1 0x440 s 8 12 70 09 05 40 00 00 00 
11:49:17:4440 Rx 1 0x441 s 8 00 00 00 00 00 00 00 00 
11:49:17:4450 Rx 1 0x442 s 8 00 00 00 00 00 00 00 00 
11:49:17:4450 Rx 1 0x443 s 8 00 00 00 00 00 00 00 00 
11:49:17:4450 Rx 1 0x444 s 8 31 20 00 00 00 00 00 00 
11:49:17:4480 Rx 1 0x210 s 7 FF FF 30 20 90 00 40 
11:49:17:4480 Rx 1 0x4B0 s 8 27 10 27 10 27 10 27 10 
11:49:17:4590 Rx 1 0x359 s 8 02 00 00 86 00 00 00 00 
11:49:17:4620 Rx 1 0x210 s 7 FF FF 30 20 90 00 41 
11:49:17:4620 Rx 1 0x4B0 s 8 27 10 27 10 27 10 27 10 
11:49:17:4630 Rx 1 0x408 s 8 0F 02 84 30 80 1C 7F 06 
11:49:17:4640 Rx 1 0x40B s 8 00 00 06 00 01 00 60 00 
11:49:17:4760 Rx 1 0x210 s 7 FF FF 30 20 90 00 42 
11:49:17:4760 Rx 1 0x4B0 s 8 27 10 27 10 27 10 27 10 
11:49:17:4830 Rx 1 0x610 s 8 06 90 06 7E 19 15 00 00 
11:49:17:4830 Rx 1 0x611 s 8 06 8C 00 12 F9 F9 F9 F9 
11:49:17:4900 Rx 1 0x210 s 7 FF FF 30 20 90 00 43 
11:49:17:4900 Rx 1 0x4B0 s 8 27 10 27 10 27 10 27 10 
11:49:17:5030 Rx 1 0x045 s 8 40 00 92 00 00 00 00 00 
11:49:17:5040 Rx 1 0x210 s 7 FF FF 30 20 90 00 44 
11:49:17:5040 Rx 1 0x4B0 s 8 27 10 27 10 27 10 27 10 
11:49:17:5180 Rx 1 0x210 s 7 FF FF 30 20 90 00 45 
11:49:17:5180 Rx 1 0x4B0 s 8 27 10 27 10 27 10 27 10 
11:49:17:5190 Rx 1 0x251 s 8 40 00 00 00 00 00 00 00 
11:49:17:5290 Rx 1 0x264 s 8 00 00 01 00 01 01 20 00 
11:49:17:5310 Rx 1 0x495 s 2 7F 00 
11:49:17:5320 Rx 1 0x210 s 7 FF FF 30 20 90 00 46 
11:49:17:5320 Rx 1 0x4B0 s 8 27 10 27 10 27 10 27 10 
11:49:17:5340 Rx 1 0x023 s 1 40 
11:49:17:5340 Rx 1 0x460 s 8 03 E0 00 00 00 00 00 00 
11:49:17:5390 Rx 1 0x265 s 8 FF FF 00 00 00 04 00 00 
11:49:17:5410 Rx 1 0x345 s 8 24 44 40 00 00 00 00 00 
11:49:17:5410 Rx 1 0x344 s 4 FF FF FF FF 
11:49:17:5440 Rx 1 0x250 s 8 08 00 40 00 00 00 00 00 
11:49:17:5460 Rx 1 0x210 s 7 FF FF 30 20 90 00 47 
11:49:17:5460 Rx 1 0x4B0 s 8 27 10 27 10 27 10 27 10 
11:49:17:5490 Rx 1 0x311 s 2 00 00 
11:49:17:5600 Rx 1 0x210 s 7 FF FF 30 20 90 00 48 
11:49:17:5600 Rx 1 0x4B0 s 8 27 10 27 10 27 10 27 10 
11:49:17:5740 Rx 1 0x210 s 7 FF FF 30 20 90 00 49 
11:49:17:5740 Rx 1 0x4B0 s 8 27 10 27 10 27 10 27 10 
11:49:17:5880 Rx 1 0x210 s 7 FF FF 30 20 90 00 4A 
11:49:17:5880 Rx 1 0x4B0 s 8 27 10 27 10 27 10 27 10 
11:49:17:6020 Rx 1 0x210 s 7 FF FF 30 20 90 00 4B 
11:49:17:6020 Rx 1 0x4B0 s 8 27 10 27 10 27 10 27 10 
11:49:17:6030 Rx 1 0x045 s 8 40 00 92 00 00 00 00 00 
11:49:17:6080 Rx 1 0x301 s 8 00 01 0F 60 00 04 00 E6 
11:49:17:6080 Rx 1 0x302 s 8 00 00 00 00 09 54 08 A2 
11:49:17:6090 Rx 1 0x304 s 8 00 00 00 00 00 FA 00 D2 
11:49:17:6090 Rx 1 0x305 s 8 00 00 01 40 00 00 00 80 
11:49:17:6090 Rx 1 0x303 s 8 0F 59 00 14 06 00 00 00 
11:49:17:6160 Rx 1 0x210 s 7 FF FF 30 20 90 00 4C 
11:49:17:6160 Rx 1 0x4B0 s 8 27 10 27 10 27 10 27 10 
11:49:17:6190 Rx 1 0x251 s 8 40 00 00 00 00 00 00 00 
11:49:17:6290 Rx 1 0x265 s 8 FF FF 00 00 00 04 00 00 
11:49:17:6300 Rx 1 0x210 s 7 FF FF 30 20 90 00 4D 
11:49:17:6300 Rx 1 0x4B0 s 8 27 10 27 10 27 10 27 10 
11:49:17:6310 Rx 1 0x495 s 2 7F 00 
11:49:17:6330 Rx 1 0x460 s 8 03 E0 00 00 00 00 00 00 
11:49:17:6390 Rx 1 0x310 s 3 02 00 00 
11:49:17:6440 Rx 1 0x250 s 8 08 00 40 00 00 00 00 00 
11:49:17:6440 Rx 1 0x210 s 7 FF FF 30 20 90 00 4E 
11:49:17:6440 Rx 1 0x440 s 8 12 70 09 05 40 00 00 00 
11:49:17:6450 Rx 1 0x4B0 s 8 27 10 27 10 27 10 27 10 
11:49:17:6450 Rx 1 0x441 s 8 00 00 00 00 00 00 00 00 
11:49:17:6450 Rx 1 0x442 s 8 00 00 00 00 00 00 00 00 
11:49:17:6460 Rx 1 0x443 s 8 00 00 00 00 00 00 00 00 
11:49:17:6460 Rx 1 0x444 s 8 31 20 00 00 00 00 00 00 
11:49:17:6580 Rx 1 0x210 s 7 FF FF 30 20 90 00 4F 
11:49:17:6580 Rx 1 0x4B0 s 8 27 10 27 10 27 10 27 10 
11:49:17:6590 Rx 1 0x359 s 8 02 00 00 86 00 00 00 00 
11:49:17:6720 Rx 1 0x210 s 7 FF FF 30 20 90 00 50 
11:49:17:6720 Rx 1 0x4B0 s 8 27 10 27 10 27 10 27 10 
11:49:17:6830 Rx 1 0x610 s 8 06 90 06 82 19 15 00 00 
11:49:17:6830 Rx 1 0x611 s 8 06 8C 00 0E F9 F9 F9 F9 
11:49:17:6860 Rx 1 0x210 s 7 FF FF 30 20 90 00 51 
11:49:17:6860 Rx 1 0x4B0 s 8 27 10 27 10 27 10 27 10 
11:49:17:6930 Rx 1 0x409 s 8 18 00 00 00 00 00 00 00 
11:49:17:7000 Rx 1 0x210 s 7 FF FF 30 20 90 00 52 
11:49:17:7000 Rx 1 0x4B0 s 8 27 10 27 10 27 10 27 10 
11:49:17:7030 Rx 1 0x045 s 8 40 00 92 00 00 00 00 00 
11:49:17:7140 Rx 1 0x210 s 7 FF FF 30 20 90 00 53 
11:49:17:7140 Rx 1 0x4B0 s 8 27 10 27 10 27 10 27 10 
11:49:17:7190 Rx 1 0x251 s 8 40 00 00 00 00 00 00 00 
11:49:17:7280 Rx 1 0x210 s 7 FF FF 30 20 90 00 54 
11:49:17:7280 Rx 1 0x4B0 s 8 27 10 27 10 27 10 27 10 
11:49:17:7290 Rx 1 0x264 s 8 00 00 01 00 01 01 20 00 
11:49:17:7310 Rx 1 0x495 s 2 7F 00 
11:49:17:7330 Rx 1 0x023 s 1 40 
11:49:17:7340 Rx 1 0x460 s 8 03 E0 00 00 00 00 00 00 
11:49:17:7390 Rx 1 0x265 s 8 FF FF 00 00 00 04 00 00 
11:49:17:7410 Rx 1 0x345 s 8 24 44 40 00 00 00 00 00 
11:49:17:7410 Rx 1 0x344 s 4 FF FF FF FF 
11:49:17:7420 Rx 1 0x210 s 7 FF FF 30 20 90 00 55 
11:49:17:7420 Rx 1 0x4B0 s 8 27 10 27 10 27 10 27 10 
11:49:17:7440 Rx 1 0x250 s 8 08 00 40 00 00 00 00 00 
11:49:17:7450 Rx 1 0x3A0 s 8 00 00 03 E4 00 00 00 00 
11:49:17:7460 Rx 1 0x3A1 s 8 80 18 00 00 31 00 EB 80 
11:49:17:7490 Rx 1 0x311 s 2 00 00 
11:49:17:7560 Rx 1 0x210 s 7 FF FF 30 20 90 00 56 
11:49:17:7560 Rx 1 0x4B0 s 8 27 10 27 10 27 10 27 10 
11:49:17:7700 Rx 1 0x210 s 7 FF FF 30 20 90 00 57 
11:49:17:7700 Rx 1 0x4B0 s 8 27 10 27 10 27 10 27 10 
11:49:17:7840 Rx 1 0x210 s 7 FF FF 30 20 90 00 58 
11:49:17:7840 Rx 1 0x4B0 s 8 27 10 27 10 27 10 27 10 
11:49:17:7980 Rx 1 0x210 s 7 FF FF 30 20 90 00 59 
11:49:17:7980 Rx 1 0x4B0 s 8 27 10 27 10 27 10 27 10 
11:49:17:8030 Rx 1 0x045 s 8 40 00 92 00 00 00 00 00 
11:49:17:8050 Rx 1 0x045 s 8 40 00 92 00 00 00 00 00 
11:49:17:8080 Rx 1 0x301 s 8 00 01 0F 60 00 04 00 E6 
11:49:17:8080 Rx 1 0x302 s 8 00 00 00 00 09 54 08 A2 
11:49:17:8090 Rx 1 0x304 s 8 00 00 00 00 00 FA 00 D2 
11:49:17:8090 Rx 1 0x305 s 8 00 00 01 40 00 00 00 80 
11:49:17:8090 Rx 1 0x303 s 8 0F 59 00 14 06 00 00 00 
11:49:17:8120 Rx 1 0x210 s 7 FF FF 30 20 90 00 5A 
11:49:17:8120 Rx 1 0x4B0 s 8 27 10 27 10 27 10 27 10 
11:49:17:8190 Rx 1 0x251 s 8 40 00 00 00 00 00 00 00 
11:49:17:8260 Rx 1 0x210 s 7 FF FF 30 20 90 00 5B 
11:49:17:8260 Rx 1 0x4B0 s 8 27 10 27 10 27 10 27 10 
11:49:17:8290 Rx 1 0x263 s 6 00 00 31 80 09 00 
11:49:17:8310 Rx 1 0x495 s 2 7F 00 
11:49:17:8330 Rx 1 0x460 s 8 03 E0 00 00 00 00 00 00 
11:49:17:8390 Rx 1 0x265 s 8 FF FF 00 00 00 04 00 00 
11:49:17:8400 Rx 1 0x210 s 7 FF FF 30 20 90 00 5C 
11:49:17:8400 Rx 1 0x4B0 s 8 27 10 27 10 27 10 27 10 
11:49:17:8440 Rx 1 0x250 s 8 08 00 40 00 00 00 00 00 
11:49:17:8450 Rx 1 0x440 s 8 12 70 09 05 40 00 00 00 
11:49:17:8450 Rx 1 0x441 s 8 00 00 00 00 00 00 00 00 
11:49:17:8460 Rx 1 0x442 s 8 00 00 00 00 00 00 00 00 
11:49:17:8460 Rx 1 0x443 s 8 00 00 00 00 00 00 00 00 
11:49:17:8470 Rx 1 0x444 s 8 31 20 00 00 00 00 00 00 
11:49:17:8490 Rx 1 0x310 s 3 02 00 00 
11:49:17:8540 Rx 1 0x210 s 7 FF FF 30 20 90 00 5D 
11:49:17:8540 Rx 1 0x4B0 s 8 27 10 27 10 27 10 27 10 
11:49:17:8680 Rx 1 0x210 s 7 FF FF 30 20 90 00 5E 
11:49:17:8680 Rx 1 0x4B0 s 8 27 10 27 10 27 10 27 10 
11:49:17:8690 Rx 1 0x359 s 8 02 00 00 86 00 00 00 00 
11:49:17:8820 Rx 1 0x210 s 7 FF FF 30 20 90 00 5F 
11:49:17:8820 Rx 1 0x4B0 s 8 27 10 27 10 27 10 27 10 
11:49:17:8830 Rx 1 0x610 s 8 06 90 06 84 19 15 00 00 
11:49:17:8830 Rx 1 0x611 s 8 06 8C 00 0C F9 F9 F9 F9 
11:49:17:8960 Rx 1 0x210 s 7 FF FF 30 20 90 00 60 
11:49:17:8960 Rx 1 0x4B0 s 8 27 10 27 10 27 10 27 10 
11:49:17:9030 Rx 1 0x045 s 8 40 00 92 00 00 00 00 00 
11:49:17:9100 Rx 1 0x210 s 7 FF FF 30 20 90 00 61 
11:49:17:9100 Rx 1 0x4B0 s 8 27 10 27 10 27 10 27 10 
11:49:17:9190 Rx 1 0x251 s 8 40 00 00 00 00 00 00 00 
11:49:17:9240 Rx 1 0x210 s 7 FF FF 30 20 90 00 62 
11:49:17:9240 Rx 1 0x4B0 s 8 27 10 27 10 27 10 27 10 
11:49:17:9290 Rx 1 0x264 s 8 00 00 01 00 01 01 20 00 
11:49:17:9310 Rx 1 0x495 s 2 7F 00 
11:49:17:9330 Rx 1 0x023 s 1 40 
11:49:17:9330 Rx 1 0x460 s 8 03 E0 00 00 00 00 00 00 
11:49:17:9380 Rx 1 0x210 s 7 FF FF 30 20 90 00 63 
11:49:17:9380 Rx 1 0x4B0 s 8 27 10 27 10 27 10 27 10 
11:49:17:9390 Rx 1 0x265 s 8 FF FF 00 00 00 04 00 00 
11:49:17:9420 Rx 1 0x345 s 8 24 44 40 00 00 00 00 00 
11:49:17:9430 Rx 1 0x344 s 4 FF FF FF FF 
11:49:17:9440 Rx 1 0x250 s 8 08 00 40 00 00 00 00 00 
11:49:17:9490 Rx 1 0x311 s 2 00 00 
11:49:17:9520 Rx 1 0x210 s 7 FF FF 30 20 90 00 64 
11:49:17:9520 Rx 1 0x4B0 s 8 27 10 27 10 27 10 27 10 
11:49:17:9630 Rx 1 0x408 s 8 0F 02 84 30 80 1C 7F 06 
11:49:17:9630 Rx 1 0x40B s 8 00 00 06 00 01 00 60 00 
11:49:17:9660 Rx 1 0x210 s 7 FF FF 30 20 90 00 65 
11:49:17:9670 Rx 1 0x4B0 s 8 27 10 27 10 27 10 27 10 
11:49:17:9800 Rx 1 0x210 s 7 FF FF 30 20 90 00 66 
11:49:17:9810 Rx 1 0x4B0 s 8 27 10 27 10 27 10 27 10 
11:49:17:9940 Rx 1 0x210 s 7 FF FF 30 20 90 00 67 
11:49:17:9950 Rx 1 0x4B0 s 8 27 10 27 10 27 10 27 10 
11:49:18:0030 Rx 1 0x045 s 8 40 00 92 00 00 00 00 00 
11:49:18:0080 Rx 1 0x301 s 8 00 01 0F 60 00 04 00 E6 
11:49:18:0080 Rx 1 0x210 s 7 FF FF 30 20 90 00 68 
11:49:18:0090 Rx 1 0x304 s 8 00 00 00 00 00 FA 00 D2 
11:49:18:0090 Rx 1 0x302 s 8 00 00 00 00 09 54 08 A2 
11:49:18:0090 Rx 1 0x305 s 8 00 00 01 40 00 00 00 80 
11:49:18:0090 Rx 1 0x303 s 8 0F 59 00 14 06 00 00 00 
11:49:18:0100 Rx 1 0x4B0 s 8 27 10 27 10 27 10 27 10 
11:49:18:0190 Rx 1 0x251 s 8 40 00 00 00 00 00 00 00 
11:49:18:0220 Rx 1 0x210 s 7 FF FF 30 20 90 00 69 
11:49:18:0230 Rx 1 0x4B0 s 8 27 10 27 10 27 10 27 10 
11:49:18:0290 Rx 1 0x265 s 8 FF FF 00 00 00 04 00 00 
11:49:18:0310 Rx 1 0x495 s 2 7F 00 
11:49:18:0330 Rx 1 0x460 s 8 03 E0 00 00 00 00 00 00 
11:49:18:0360 Rx 1 0x210 s 7 FF FF 30 20 90 00 6A 
11:49:18:0370 Rx 1 0x4B0 s 8 27 10 27 10 27 10 27 10 
11:49:18:0390 Rx 1 0x310 s 3 02 00 00 
11:49:18:0440 Rx 1 0x250 s 8 08 00 40 00 00 00 00 00 
11:49:18:0450 Rx 1 0x440 s 8 12 70 09 05 40 00 00 00 
11:49:18:0450 Rx 1 0x441 s 8 00 00 00 00 00 00 00 00 
11:49:18:0460 Rx 1 0x442 s 8 00 00 00 00 00 00 00 00 
11:49:18:0460 Rx 1 0x443 s 8 00 00 00 00 00 00 00 00 
11:49:18:0470 Rx 1 0x444 s 8 31 20 00 00 00 00 00 00 
11:49:18:0500 Rx 1 0x210 s 7 FF FF 30 20 90 00 6B 
11:49:18:0510 Rx 1 0x4B0 s 8 27 10 27 10 27 10 27 10 
11:49:18:0590 Rx 1 0x359 s 8 02 00 00 86 00 00 00 00 
11:49:18:0640 Rx 1 0x210 s 7 FF FF 30 20 90 00 6C 
11:49:18:0650 Rx 1 0x4B0 s 8 27 10 27 10 27 10 27 10 
11:49:18:0780 Rx 1 0x210 s 7 FF FF 30 20 90 00 6D 
11:49:18:0790 Rx 1 0x4B0 s 8 27 10 27 10 27 10 27 10 
11:49:18:0830 Rx 1 0x610 s 8 06 90 06 86 19 15 00 00 
11:49:18:0830 Rx 1 0x611 s 8 06 8C 00 0A F9 F9 F9 F9 
11:49:18:0920 Rx 1 0x210 s 7 FF FF 30 20 90 00 6E 
11:49:18:0930 Rx 1 0x4B0 s 8 27 10 27 10 27 10 27 10 
11:49:18:1030 Rx 1 0x045 s 8 40 00 92 00 00 00 00 00 
11:49:18:1060 Rx 1 0x210 s 7 FF FF 30 20 90 00 6F 
11:49:18:1070 Rx 1 0x4B0 s 8 27 10 27 10 27 10 27 10 
11:49:18:1190 Rx 1 0x251 s 8 40 00 00 00 00 00 00 00 
11:49:18:1200 Rx 1 0x210 s 7 FF FF 30 20 90 00 70 
11:49:18:1210 Rx 1 0x4B0 s 8 27 10 27 10 27 10 27 10 
11:49:18:1290 Rx 1 0x264 s 8 00 00 01 00 01 01 20 00 
11:49:18:1310 Rx 1 0x495 s 2 7F 00 
11:49:18:1320 Rx 1 0x023 s 1 40 
11:49:18:1330 Rx 1 0x460 s 8 03 E0 00 00 00 00 00 00 
11:49:18:1340 Rx 1 0x210 s 7 FF FF 30 20 90 00 71 
11:49:18:1350 Rx 1 0x4B0 s 8 27 10 27 10 27 10 27 10 
11:49:18:1390 Rx 1 0x265 s 8 FF FF 00 00 00 04 00 00 
11:49:18:1410 Rx 1 0x345 s 8 24 44 40 00 00 00 00 00 
11:49:18:1410 Rx 1 0x344 s 4 FF FF FF FF 
11:49:18:1450 Rx 1 0x250 s 8 08 00 40 00 00 00 00 00 
11:49:18:1480 Rx 1 0x210 s 7 FF FF 30 20 90 00 72 
11:49:18:1490 Rx 1 0x4B0 s 8 27 10 27 10 27 10 27 10 
11:49:18:1490 Rx 1 0x311 s 2 00 00 
11:49:18:1620 Rx 1 0x210 s 7 FF FF 30 20 90 00 73 
11:49:18:1630 Rx 1 0x4B0 s 8 27 10 27 10 27 10 27 10 
11:49:18:1760 Rx 1 0x210 s 7 FF FF 30 20 90 00 74 
11:49:18:1770 Rx 1 0x4B0 s 8 27 10 27 10 27 10 27 10 
11:49:18:1900 Rx 1 0x210 s 7 FF FF 30 20 90 00 75 
11:49:18:1910 Rx 1 0x4B0 s 8 27 10 27 10 27 10 27 10 
11:49:18:1930 Rx 1 0x409 s 8 18 00 00 00 00 00 00 00 
11:49:18:2030 Rx 1 0x045 s 8 40 00 92 00 00 00 00 00 
11:49:18:2040 Rx 1 0x210 s 7 FF FF 30 20 90 00 76 
11:49:18:2050 Rx 1 0x4B0 s 8 27 10 27 10 27 10 27 10 
11:49:18:2050 Rx 1 0x045 s 8 40 00 92 00 00 00 00 00 
11:49:18:2080 Rx 1 0x301 s 8 00 01 0F 60 00 04 00 E6 
11:49:18:2080 Rx 1 0x302 s 8 00 00 00 00 09 54 08 A2 
11:49:18:2090 Rx 1 0x304 s 8 00 00 00 00 00 FA 00 D2 
11:49:18:2090 Rx 1 0x305 s 8 00 00 01 40 00 00 00 80 
11:49:18:2090 Rx 1 0x303 s 8 0F 59 00 14 06 00 00 00 
11:49:18:2180 Rx 1 0x210 s 7 FF FF 30 20 90 00 77 
11:49:18:2190 Rx 1 0x4B0 s 8 27 10 27 10 27 10 27 10 
11:49:18:2190 Rx 1 0x251 s 8 40 00 00 00 00 00 00 00 
11:49:18:2290 Rx 1 0x265 s 8 FF FF 00 00 00 04 00 00 
11:49:18:2310 Rx 1 0x495 s 2 7F 00 
11:49:18:2320 Rx 1 0x460 s 8 03 E0 00 00 00 00 00 00 
11:49:18:2320 Rx 1 0x210 s 7 FF FF 30 20 90 00 78 
11:49:18:2330 Rx 1 0x4B0 s 8 27 10 27 10 27 10 27 10 
11:49:18:2390 Rx 1 0x310 s 3 02 00 00 
11:49:18:2450 Rx 1 0x250 s 8 08 00 40 00 00 00 00 00 
11:49:18:2450 Rx 1 0x440 s 8 12 70 09 05 40 00 00 00 
11:49:18:2460 Rx 1 0x441 s 8 00 00 00 00 00 00 00 00 
11:49:18:2460 Rx 1 0x442 s 8 00 00 00 00 00 00 00 00 
11:49:18:2460 Rx 1 0x210 s 7 FF FF 30 20 90 00 79 
11:49:18:2470 Rx 1 0x443 s 8 00 00 00 00 00 00 00 00 
11:49:18:2470 Rx 1 0x4B0 s 8 27 10 27 10 27 10 27 10 
11:49:18:2470 Rx 1 0x444 s 8 31 20 00 00 00 00 00 00 
11:49:18:2480 Rx 1 0x3A0 s 8 00 00 03 E4 00 00 00 00 
11:49:18:2490 Rx 1 0x3A1 s 8 80 18 00 00 31 00 EB 80 
11:49:18:2590 Rx 1 0x359 s 8 02 00 00 86 00 00 00 00 
11:49:18:2600 Rx 1 0x210 s 7 FF FF 30 20 90 00 7A 
11:49:18:2610 Rx 1 0x4B0 s 8 27 10 27 10 27 10 27 10 
11:49:18:2740 Rx 1 0x210 s 7 FF FF 30 20 90 00 7B 
11:49:18:2750 Rx 1 0x4B0 s 8 27 10 27 10 27 10 27 10 
11:49:18:2830 Rx 1 0x610 s 8 06 90 06 87 19 15 00 00 
11:49:18:2830 Rx 1 0x300 s 8 02 04 27 00 00 3F 01 00 
11:49:18:2840 Rx 1 0x306 s 8 00 00 00 00 00 00 00 00 
11:49:18:2840 Rx 1 0x611 s 8 06 8C 00 09 F9 F9 F9 F9 
11:49:18:2840 Rx 1 0x722 s 8 00 00 00 00 00 00 00 00 
11:49:18:2840 Rx 1 0x723 s 8 00 80 00 01 A0 14 24 00 
11:49:18:2850 Rx 1 0x721 s 8 00 00 00 00 00 00 00 00 
11:49:18:2880 Rx 1 0x210 s 7 FF FF 30 20 90 00 7C 
11:49:18:2890 Rx 1 0x4B0 s 8 27 10 27 10 27 10 27 10 
11:49:18:3020 Rx 1 0x210 s 7 FF FF 30 20 90 00 7D 
11:49:18:3030 Rx 1 0x045 s 8 40 00 92 00 00 00 00 00 
11:49:18:3030 Rx 1 0x4B0 s 8 27 10 27 10 27 10 27 10 
11:49:18:3160 Rx 1 0x210 s 7 FF FF 30 20 90 00 7E 
11:49:18:3170 Rx 1 0x4B0 s 8 27 10 27 10 27 10 27 10 
11:49:18:3190 Rx 1 0x251 s 8 40 00 00 00 00 00 00 00 
11:49:18:3290 Rx 1 0x263 s 6 00 00 31 80 0A 00 
11:49:18:3300 Rx 1 0x210 s 7 FF FF 30 20 90 00 7F 
11:49:18:3310 Rx 1 0x4B0 s 8 27 10 27 10 27 10 27 10 
11:49:18:3310 Rx 1 0x495 s 2 7F 00 
11:49:18:3320 Rx 1 0x023 s 1 40 
11:49:18:3320 Rx 1 0x460 s 8 03 E0 00 00 00 00 00 00 
11:49:18:3390 Rx 1 0x264 s 8 00 00 01 00 01 01 20 00 
11:49:18:3410 Rx 1 0x345 s 8 24 44 40 00 00 00 00 00 
11:49:18:3410 Rx 1 0x344 s 4 FF FF FF FF 
11:49:18:3440 Rx 1 0x210 s 7 FF FF 30 20 90 00 80 
11:49:18:3450 Rx 1 0x4B0 s 8 27 10 27 10 27 10 27 10 
11:49:18:3450 Rx 1 0x250 s 8 08 00 40 00 00 00 00 00 
11:49:18:3490 Rx 1 0x265 s 8 FF FF 00 00 00 04 00 00 
11:49:18:3590 Rx 1 0x210 s 7 FF FF 30 20 90 00 81 
11:49:18:3590 Rx 1 0x4B0 s 8 27 10 27 10 27 10 27 10 
11:49:18:3590 Rx 1 0x311 s 2 00 00 
11:49:18:3730 Rx 1 0x210 s 7 FF FF 30 20 90 00 82 
11:49:18:3730 Rx 1 0x4B0 s 8 27 10 27 10 27 10 27 10 
11:49:18:3860 Rx 1 0x210 s 7 FF FF 30 20 90 00 83 
11:49:18:3870 Rx 1 0x4B0 s 8 27 10 27 10 27 10 27 10 
11:49:18:4000 Rx 1 0x210 s 7 FF FF 30 20 90 00 84 
11:49:18:4010 Rx 1 0x4B0 s 8 27 10 27 10 27 10 27 10 
11:49:18:4020 Rx 1 0x045 s 8 40 00 92 00 00 00 00 00 
11:49:18:4080 Rx 1 0x301 s 8 00 01 0F 60 00 04 00 E6 
11:49:18:4080 Rx 1 0x302 s 8 00 00 00 00 09 54 08 A2 
11:49:18:4090 Rx 1 0x304 s 8 00 00 00 00 00 FA 00 D2 
11:49:18:4090 Rx 1 0x305 s 8 00 00 01 40 00 00 00 80 
11:49:18:4090 Rx 1 0x303 s 8 0F 59 00 14 06 00 00 00 
11:49:18:4150 Rx 1 0x210 s 7 FF FF 30 20 90 00 85 
11:49:18:4150 Rx 1 0x4B0 s 8 27 10 27 10 27 10 27 10 
11:49:18:4190 Rx 1 0x251 s 8 40 00 00 00 00 00 00 00 
11:49:18:4290 Rx 1 0x210 s 7 FF FF 30 20 90 00 86 
11:49:18:4290 Rx 1 0x4B0 s 8 27 10 27 10 27 10 27 10 
11:49:18:4290 Rx 1 0x265 s 8 FF FF 00 00 00 04 00 00 
11:49:18:4310 Rx 1 0x495 s 2 7F 00 
11:49:18:4320 Rx 1 0x460 s 8 03 E0 00 00 00 00 00 00 
11:49:18:4390 Rx 1 0x310 s 3 02 00 00 
11:49:18:4430 Rx 1 0x210 s 7 FF FF 30 20 90 00 87 
11:49:18:4430 Rx 1 0x4B0 s 8 27 10 27 10 27 10 27 10 
11:49:18:4450 Rx 1 0x250 s 8 08 00 40 00 00 00 00 00 
11:49:18:4450 Rx 1 0x440 s 8 12 70 09 05 40 00 00 00 
11:49:18:4460 Rx 1 0x441 s 8 00 00 00 00 00 00 00 00 
11:49:18:4460 Rx 1 0x442 s 8 00 00 00 00 00 00 00 00 
11:49:18:4470 Rx 1 0x443 s 8 00 00 00 00 00 00 00 00 
11:49:18:4470 Rx 1 0x444 s 8 31 20 00 00 00 00 00 00 
11:49:18:4570 Rx 1 0x210 s 7 FF FF 30 20 90 00 88 
11:49:18:4570 Rx 1 0x4B0 s 8 27 10 27 10 27 10 27 10 
11:49:18:4590 Rx 1 0x359 s 8 02 00 00 86 00 00 00 00 
11:49:18:4620 Rx 1 0x408 s 8 0F 02 84 30 80 1C 7F 06 
11:49:18:4630 Rx 1 0x40B s 8 00 00 06 00 02 00 60 00 
11:49:18:4710 Rx 1 0x210 s 7 FF FF 30 20 90 00 89 
11:49:18:4710 Rx 1 0x4B0 s 8 27 10 27 10 27 10 27 10 
11:49:18:4830 Rx 1 0x610 s 8 06 90 06 88 19 15 00 00 
11:49:18:4830 Rx 1 0x611 s 8 06 8C 00 08 F9 F9 F9 F9 
11:49:18:4850 Rx 1 0x210 s 7 FF FF 30 20 90 00 8A 
11:49:18:4850 Rx 1 0x4B0 s 8 27 10 27 10 27 10 27 10 
11:49:18:4990 Rx 1 0x210 s 7 FF FF 30 20 90 00 8B 
11:49:18:4990 Rx 1 0x4B0 s 8 27 10 27 10 27 10 27 10 
11:49:18:5020 Rx 1 0x045 s 8 40 00 A2 00 00 00 00 00 
11:49:18:5130 Rx 1 0x210 s 7 FF FF 30 20 90 00 8C 
11:49:18:5130 Rx 1 0x4B0 s 8 27 10 27 10 27 10 27 10 
11:49:18:5190 Rx 1 0x251 s 8 40 00 00 00 00 00 00 00 
11:49:18:5270 Rx 1 0x210 s 7 FF FF 30 20 90 00 8D 
11:49:18:5270 Rx 1 0x4B0 s 8 27 10 27 10 27 10 27 10 
11:49:18:5290 Rx 1 0x264 s 8 00 00 01 00 01 01 20 00 
11:49:18:5310 Rx 1 0x495 s 2 7F 00 
11:49:18:5310 Rx 1 0x023 s 1 40 
11:49:18:5320 Rx 1 0x460 s 8 03 E0 00 00 00 00 00 00 
11:49:18:5390 Rx 1 0x265 s 8 FF FF 00 00 00 04 00 00 
11:49:18:5410 Rx 1 0x210 s 7 FF FF 30 20 90 00 8E 
11:49:18:5410 Rx 1 0x4B0 s 8 27 10 27 10 27 10 27 10 
11:49:18:5410 Rx 1 0x345 s 8 24 44 40 00 00 00 00 00 
11:49:18:5410 Rx 1 0x344 s 4 FF FF FF FF 
11:49:18:5450 Rx 1 0x250 s 8 08 00 40 00 00 00 00 00 
11:49:18:5490 Rx 1 0x311 s 2 00 00 
11:49:18:5550 Rx 1 0x210 s 7 FF FF 30 20 90 00 8F 
11:49:18:5550 Rx 1 0x4B0 s 8 27 10 27 10 27 10 27 10 
11:49:18:5690 Rx 1 0x210 s 7 FF FF 30 20 90 00 90 
11:49:18:5690 Rx 1 0x4B0 s 8 27 10 27 10 27 10 27 10 
11:49:18:5830 Rx 1 0x210 s 7 FF FF 30 20 90 00 91 
11:49:18:5830 Rx 1 0x4B0 s 8 27 10 27 10 27 10 27 10 
11:49:18:5970 Rx 1 0x210 s 7 FF FF 30 20 90 00 92 
11:49:18:5970 Rx 1 0x4B0 s 8 27 10 27 10 27 10 27 10 
11:49:18:6020 Rx 1 0x045 s 8 40 00 A2 00 00 00 00 00 
11:49:18:6040 Rx 1 0x045 s 8 40 00 A2 00 00 00 00 00 
11:49:18:6080 Rx 1 0x301 s 8 00 01 0F 60 00 04 00 E6 
11:49:18:6090 Rx 1 0x302 s 8 00 00 00 00 09 54 08 A2 
11:49:18:6090 Rx 1 0x304 s 8 00 00 00 00 00 FA 00 D2 
11:49:18:6090 Rx 1 0x305 s 8 00 00 01 40 00 00 00 80 
11:49:18:6090 Rx 1 0x303 s 8 0F 59 00 14 06 00 00 00 
11:49:18:6110 Rx 1 0x210 s 7 FF FF 30 20 90 00 93 
11:49:18:6110 Rx 1 0x4B0 s 8 27 10 27 10 27 10 27 10 
11:49:18:6190 Rx 1 0x251 s 8 40 00 00 00 00 00 00 00 
11:49:18:6250 Rx 1 0x210 s 7 FF FF 30 20 90 00 94 
11:49:18:6250 Rx 1 0x4B0 s 8 27 10 27 10 27 10 27 10 
11:49:18:6290 Rx 1 0x265 s 8 FF FF 00 00 00 04 00 00 
11:49:18:6310 Rx 1 0x495 s 2 7F 00 
11:49:18:6310 Rx 1 0x460 s 8 03 E0 00 00 00 00 00 00 
11:49:18:6390 Rx 1 0x210 s 7 FF FF 30 20 90 00 95 
11:49:18:6390 Rx 1 0x4B0 s 8 27 10 27 10 27 10 27 10 
11:49:18:6390 Rx 1 0x310 s 3 02 00 00 
11:49:18:6450 Rx 1 0x250 s 8 08 00 40 00 00 00 00 00 
11:49:18:6460 Rx 1 0x440 s 8 12 70 09 05 40 00 00 00 
11:49:18:6460 Rx 1 0x441 s 8 00 00 00 00 00 00 00 00 
11:49:18:6470 Rx 1 0x442 s 8 00 00 00 00 00 00 00 00 
11:49:18:6470 Rx 1 0x443 s 8 00 00 00 00 00 00 00 00 
11:49:18:6480 Rx 1 0x444 s 8 31 20 00 00 00 00 00 00 
11:49:18:6530 Rx 1 0x210 s 7 FF FF 30 20 90 00 96 
11:49:18:6530 Rx 1 0x4B0 s 8 27 10 27 10 27 10 27 10 
11:49:18:6590 Rx 1 0x359 s 8 02 00 00 86 00 00 00 00 
11:49:18:6670 Rx 1 0x210 s 7 FF FF 30 20 90 00 97 
11:49:18:6670 Rx 1 0x4B0 s 8 27 10 27 10 27 10 27 10 
11:49:18:6810 Rx 1 0x210 s 7 FF FF 30 20 90 00 98 
11:49:18:6810 Rx 1 0x4B0 s 8 27 10 27 10 27 10 27 10 
11:49:18:6830 Rx 1 0x610 s 8 06 90 06 89 19 15 00 00 
11:49:18:6840 Rx 1 0x611 s 8 06 8C 00 07 F9 F9 F9 F9 
11:49:18:6920 Rx 1 0x409 s 8 18 00 00 00 00 00 00 00 
11:49:18:6950 Rx 1 0x210 s 7 FF FF 30 20 90 00 99 
11:49:18:6950 Rx 1 0x4B0 s 8 27 10 27 10 27 10 27 10 
11:49:18:7020 Rx 1 0x045 s 8 40 00 A2 00 00 00 00 00 
11:49:18:7090 Rx 1 0x210 s 7 FF FF 30 20 90 00 9A 
11:49:18:7090 Rx 1 0x4B0 s 8 27 10 27 10 27 10 27 10 
11:49:18:7200 Rx 1 0x251 s 8 40 00 00 00 00 00 00 00 
11:49:18:7230 Rx 1 0x210 s 7 FF FF 30 20 90 00 9B 
11:49:18:7230 Rx 1 0x4B0 s 8 27 10 27 10 27 10 27 10 
11:49:18:7300 Rx 1 0x264 s 8 00 00 01 00 01 01 20 00 
11:49:18:7310 Rx 1 0x023 s 1 40 
11:49:18:7310 Rx 1 0x495 s 2 7F 00 
11:49:18:7310 Rx 1 0x460 s 8 03 E0 00 00 00 00 00 00 
11:49:18:7370 Rx 1 0x210 s 7 FF FF 30 20 90 00 9C 
11:49:18:7370 Rx 1 0x4B0 s 8 27 10 27 10 27 10 27 10 
11:49:18:7400 Rx 1 0x265 s 8 FF FF 00 00 00 04 00 00 
11:49:18:7410 Rx 1 0x345 s 8 24 44 40 00 00 00 00 00 
11:49:18:7410 Rx 1 0x344 s 4 FF FF FF FF 
11:49:18:7460 Rx 1 0x250 s 8 08 00 40 00 00 00 00 00 
11:49:18:7460 Rx 1 0x3A0 s 8 00 00 03 E4 00 00 00 00 
11:49:18:7470 Rx 1 0x3A1 s 8 80 18 00 00 31 00 EB 80 
11:49:18:7490 Rx 1 0x311 s 2 00 00 
11:49:18:7510 Rx 1 0x210 s 7 FF FF 30 20 90 00 9D 
11:49:18:7510 Rx 1 0x4B0 s 8 27 10 27 10 27 10 27 10 
11:49:18:7650 Rx 1 0x210 s 7 FF FF 30 20 90 00 9E 
11:49:18:7650 Rx 1 0x4B0 s 8 27 10 27 10 27 10 27 10 
11:49:18:7790 Rx 1 0x210 s 7 FF FF 30 20 90 00 9F 
11:49:18:7790 Rx 1 0x4B0 s 8 27 10 27 10 27 10 27 10 
11:49:18:7930 Rx 1 0x210 s 7 FF FF 30 20 90 00 A0 
11:49:18:7930 Rx 1 0x4B0 s 8 27 10 27 10 27 10 27 10 
11:49:18:8020 Rx 1 0x045 s 8 40 00 A2 00 00 00 00 00 
11:49:18:8070 Rx 1 0x210 s 7 FF FF 30 20 90 00 A1 
11:49:18:8070 Rx 1 0x4B0 s 8 27 10 27 10 27 10 27 10 
11:49:18:8080 Rx 1 0x301 s 8 00 01 0F 60 00 04 00 E6 
11:49:18:8090 Rx 1 0x302 s 8 00 00 00 00 09 54 08 A2 
11:49:18:8090 Rx 1 0x304 s 8 00 00 00 00 00 FA 00 D2 
11:49:18:8090 Rx 1 0x305 s 8 00 00 01 40 00 00 00 80 
11:49:18:8090 Rx 1 0x303 s 8 0F 59 00 14 06 00 00 00 
11:49:18:8190 Rx 1 0x251 s 8 40 00 00 00 00 00 00 00 
11:49:18:8210 Rx 1 0x210 s 7 FF FF 30 20 90 00 A2 
11:49:18:8210 Rx 1 0x4B0 s 8 27 10 27 10 27 10 27 10 
11:49:18:8300 Rx 1 0x263 s 6 00 00 31 80 0B 00 
11:49:18:8310 Rx 1 0x460 s 8 03 E0 00 00 00 00 00 00 
11:49:18:8310 Rx 1 0x495 s 2 7F 00 
11:49:18:8350 Rx 1 0x210 s 7 FF FF 30 20 90 00 A3 
11:49:18:8350 Rx 1 0x4B0 s 8 27 10 27 10 27 10 27 10 
11:49:18:8400 Rx 1 0x265 s 8 FF FF 00 00 00 04 00 00 
11:49:18:8450 Rx 1 0x250 s 8 08 00 40 00 00 00 00 00 
11:49:18:8460 Rx 1 0x440 s 8 12 70 09 05 40 00 00 00 
11:49:18:8470 Rx 1 0x441 s 8 00 00 00 00 00 00 00 00 
11:49:18:8470 Rx 1 0x442 s 8 00 00 00 00 00 00 00 00 
11:49:18:8480 Rx 1 0x443 s 8 00 00 00 00 00 00 00 00 
11:49:18:8480 Rx 1 0x444 s 8 31 20 00 00 00 00 00 00 
11:49:18:8490 Rx 1 0x210 s 7 FF FF 30 20 90 00 A4 
11:49:18:8490 Rx 1 0x4B0 s 8 27 10 27 10 27 10 27 10 
11:49:18:8490 Rx 1 0x310 s 3 02 00 00 
11:49:18:8630 Rx 1 0x210 s 7 FF FF 30 20 90 00 A5 
11:49:18:8630 Rx 1 0x4B0 s 8 27 10 27 10 27 10 27 10 
11:49:18:8700 Rx 1 0x359 s 8 02 00 00 86 00 00 00 00 
11:49:18:8770 Rx 1 0x210 s 7 FF FF 30 20 90 00 A6 
11:49:18:8770 Rx 1 0x4B0 s 8 27 10 27 10 27 10 27 10 
11:49:18:8830 Rx 1 0x610 s 8 06 90 06 89 19 15 00 00 
11:49:18:8840 Rx 1 0x611 s 8 06 8C 00 07 F9 F9 F9 F9 
11:49:18:8910 Rx 1 0x210 s 7 FF FF 30 20 90 00 A7 
11:49:18:8910 Rx 1 0x4B0 s 8 27 10 27 10 27 10 27 10 
11:49:18:9020 Rx 1 0x045 s 8 40 00 A2 00 00 00 00 00 
11:49:18:9050 Rx 1 0x210 s 7 FF FF 30 20 90 00 A8 
11:49:18:9050 Rx 1 0x4B0 s 8 27 10 27 10 27 10 27 10 
11:49:18:9190 Rx 1 0x210 s 7 FF FF 30 20 90 00 A9 
11:49:18:9190 Rx 1 0x4B0 s 8 27 10 27 10 27 10 27 10 
11:49:18:9200 Rx 1 0x251 s 8 40 00 00 00 00 00 00 00 
11:49:18:9300 Rx 1 0x264 s 8 00 00 01 00 01 01 20 00 
11:49:18:9310 Rx 1 0x023 s 1 40 
11:49:18:9310 Rx 1 0x460 s 8 03 E0 00 00 00 00 00 00 
11:49:18:9310 Rx 1 0x495 s 2 7F 00 
11:49:18:9330 Rx 1 0x210 s 7 FF FF 30 20 90 00 AA 
11:49:18:9330 Rx 1 0x4B0 s 8 27 10 27 10 27 10 27 10 
11:49:18:9400 Rx 1 0x265 s 8 FF FF 00 00 00 04 00 00 
11:49:18:9420 Rx 1 0x345 s 8 24 44 40 00 00 00 00 00 
11:49:18:9430 Rx 1 0x344 s 4 FF FF FF FF 
11:49:18:9460 Rx 1 0x250 s 8 08 00 40 00 00 00 00 00 
11:49:18:9470 Rx 1 0x210 s 7 FF FF 30 20 90 00 AB 
11:49:18:9470 Rx 1 0x4B0 s 8 27 10 27 10 27 10 27 10 
11:49:18:9500 Rx 1 0x311 s 2 00 00 
11:49:18:9610 Rx 1 0x210 s 7 FF FF 30 20 90 00 AC 
11:49:18:9610 Rx 1 0x4B0 s 8 27 10 27 10 27 10 27 10 
11:49:18:9620 Rx 1 0x408 s 8 0F 02 84 30 80 1C 7F 06 
11:49:18:9620 Rx 1 0x40B s 8 00 00 06 00 02 00 60 00 
11:49:18:9750 Rx 1 0x210 s 7 FF FF 30 20 90 00 AD 
11:49:18:9750 Rx 1 0x4B0 s 8 27 10 27 10 27 10 27 10 
11:49:18:9890 Rx 1 0x210 s 7 FF FF 30 20 90 00 AE 
11:49:18:9890 Rx 1 0x4B0 s 8 27 10 27 10 27 10 27 10 
11:49:19:0020 Rx 1 0x045 s 8 40 00 A2 00 00 00 00 00 
11:49:19:0030 Rx 1 0x210 s 7 FF FF 30 20 90 00 AF 
11:49:19:0030 Rx 1 0x4B0 s 8 27 10 27 10 27 10 27 10 
11:49:19:0040 Rx 1 0x045 s 8 40 00 A2 00 00 00 00 00 
11:49:19:0080 Rx 1 0x301 s 8 00 01 0F 60 00 04 00 E6 
11:49:19:0090 Rx 1 0x302 s 8 00 00 00 00 09 54 08 A2 
11:49:19:0090 Rx 1 0x304 s 8 00 00 00 00 00 FA 00 D2 
11:49:19:0090 Rx 1 0x305 s 8 00 00 01 40 00 00 00 80 
11:49:19:0090 Rx 1 0x303 s 8 0F 59 00 14 06 00 00 00 
11:49:19:0170 Rx 1 0x210 s 7 FF FF 30 20 90 00 B0 
11:49:19:0170 Rx 1 0x4B0 s 8 27 10 27 10 27 10 27 10 
11:49:19:0200 Rx 1 0x251 s 8 40 00 00 00 00 00 00 00 
11:49:19:0300 Rx 1 0x265 s 8 FF FF 00 00 00 04 00 00 
11:49:19:0310 Rx 1 0x460 s 8 03 E0 00 00 00 00 00 00 
11:49:19:0310 Rx 1 0x210 s 7 FF FF 30 20 90 00 B1 
11:49:19:0310 Rx 1 0x4B0 s 8 27 10 27 10 27 10 27 10 
11:49:19:0310 Rx 1 0x495 s 2 7F 00 
11:49:19:0400 Rx 1 0x310 s 3 02 00 00 
11:49:19:0450 Rx 1 0x210 s 7 FF FF 30 20 90 00 B2 
11:49:19:0450 Rx 1 0x4B0 s 8 27 10 27 10 27 10 27 10 
11:49:19:0460 Rx 1 0x250 s 8 08 00 40 00 00 00 00 00 
11:49:19:0460 Rx 1 0x440 s 8 12 70 09 05 40 00 00 00 
11:49:19:0470 Rx 1 0x441 s 8 00 00 00 00 00 00 00 00 
11:49:19:0470 Rx 1 0x442 s 8 00 00 00 00 00 00 00 00 
11:49:19:0480 Rx 1 0x443 s 8 00 00 00 00 00 00 00 00 
11:49:19:0490 Rx 1 0x444 s 8 31 20 00 00 00 00 00 00 
11:49:19:0590 Rx 1 0x210 s 7 FF FF 30 20 90 00 B3 
11:49:19:0590 Rx 1 0x4B0 s 8 27 10 27 10 27 10 27 10 
11:49:19:0600 Rx 1 0x359 s 8 02 00 00 86 00 00 00 00 
11:49:19:0730 Rx 1 0x210 s 7 FF FF 30 20 90 00 B4 
11:49:19:0730 Rx 1 0x4B0 s 8 27 10 27 10 27 10 27 10 
11:49:19:0830 Rx 1 0x610 s 8 06 90 06 8A 19 15 00 00 
11:49:19:0840 Rx 1 0x611 s 8 06 8C 00 06 F9 F9 F9 F9 
11:49:19:0870 Rx 1 0x210 s 7 FF FF 30 20 90 00 B5 
11:49:19:0870 Rx 1 0x4B0 s 8 27 10 27 10 27 10 27 10 
11:49:19:1010 Rx 1 0x210 s 7 FF FF 30 20 90 00 B6 
11:49:19:1010 Rx 1 0x4B0 s 8 27 10 27 10 27 10 27 10 
11:49:19:1020 Rx 1 0x045 s 8 40 00 A2 00 00 00 00 00 
